!Agilent N9923A: A.05.17
!Date: Sunday, 01 January 2006 12:27:58
!Model: N9923A
!Serial: MY50371189
!CHECKSUM:0728282184
!Correction: S11(OFF)S21(ON U)S12(OFF)S22(OFF)
!S2P File: Measurements:S11,S21,S12,S22:
# Hz S DB R 50
500000000	-0.757481799248467	-84.2417873220099	-6.91711064906451	33.1839713141459	-6.64099042677093	34.5517359371945	-1.35997116446773	-28.4318344184289	
501000000	-1.20680099150702	-87.6197041025174	-7.44259388563733	32.5596625010347	-6.65395004141748	32.1005950292458	-1.20994155132749	-28.5273135233418	
502000000	-0.927598245008196	-85.6999542520906	-7.02803474984183	35.8977635544421	-6.93610649064311	31.9987295163755	-1.53196814471082	-31.3847801283562	
503000000	-1.25130890988676	-85.3857599504991	-6.96787839003556	32.47846913378	-6.83341771338499	34.8633869614384	-1.31263802959671	-29.3387404771645	
504000000	-1.22458082167703	-86.6038606539523	-7.52675404621781	32.9842000491888	-6.72213360871238	30.934929915591	-1.34843358257274	-33.1854851148121	
505000000	-0.898474337462537	-87.7021140247956	-7.18261979843713	28.936598473063	-6.52773717727414	27.3603232305712	-1.39382914893863	-35.1887406555356	
506000000	-1.02479604759716	-88.2886825067162	-7.11199155662083	32.4217785669616	-6.32807427973487	29.8862027580673	-1.45970748220267	-32.0467630725473	
507000000	-1.12056420223944	-87.638555638793	-6.5718401452004	29.3477422055332	-6.72584953905607	32.6471938626703	-1.44734655122985	-35.9122831590465	
508000000	-1.22219313285695	-86.9206067991642	-6.09424868106153	28.2234440671642	-6.33198075551117	27.9748381451557	-1.69958618498332	-37.6639815483266	
509000000	-1.36293278745393	-88.5485140301911	-6.42483273042407	27.5189086874086	-6.13675483292623	27.0466091220201	-1.53248954802767	-40.0995562411373	
510000000	-1.19842652078937	-89.179144473279	-6.50977241213391	24.4804658150343	-6.3940467635074	26.4951672206418	-1.35683068980588	-39.6932558887867	
511000000	-0.751086310424565	-90.4304550030167	-5.92036691509333	26.3858059459086	-5.87312546480238	26.739202616121	-1.14687787700286	-41.6848803710966	
512000000	-1.51819035306051	-90.4187803627999	-6.34977116311484	26.1777712236758	-6.68098892818434	26.5129537569936	-1.41173217218599	-42.1574919187685	
513000000	-1.38361259069007	-90.846841285621	-6.44534034537182	22.0381876636832	-6.62880442113836	24.6222629669374	-1.39499007761162	-40.9331199217778	
514000000	-1.42077463896449	-87.4285491866641	-6.60458407807768	22.0375471620038	-6.20037446056316	27.1838149308957	-1.40910963543326	-43.4962916568552	
515000000	-0.66063414697485	-90.0873438467212	-6.41732441213307	26.0592306944126	-5.76788494090216	23.6150415875648	-1.43429348014661	-43.7414829435175	
516000000	-1.44445970582321	-87.4718031052314	-5.98108585446705	23.8647608262855	-6.28269058234173	19.555870335228	-1.40284581435156	-49.4415088600656	
517000000	-1.17431180699655	-91.1426703433485	-6.44157072076623	25.6156355761433	-6.40436294464862	22.4031504538361	-1.66476904672381	-47.2198566885247	
518000000	-0.835860795484329	-89.1123803281444	-6.40555362936334	21.0053093459151	-5.72346515276536	24.7481115672109	-1.09923848418729	-48.4637521409185	
519000000	-1.05336530426046	-90.3114087951043	-6.57914115182499	20.3121173772596	-5.7861028373591	20.0366444668861	-1.70730391329041	-48.9649325177029	
520000000	-0.925004253985736	-87.61449528709	-6.05072380183686	22.2001360844292	-5.27068745729538	24.0449100578879	-1.32387466233315	-51.913052391121	
521000000	-1.37208244652269	-92.6579363321206	-5.75560621393559	18.1575832914025	-5.76749866979165	16.9687167285279	-1.34485980382913	-51.8820517803709	
522000000	-1.18051168199132	-94.0099907967828	-6.06797171778188	19.2109323063596	-6.03725697727368	19.9382353024887	-1.47275273770457	-52.7540208592114	
523000000	-1.88119189115227	-92.754770244795	-5.85398086562679	19.2088337179008	-6.30474350480309	16.1651486286304	-1.30877654175919	-52.907807815563	
524000000	-1.36897124676936	-90.1996361546361	-5.72783761262811	18.4992502908721	-5.72047609799601	17.868667213245	-1.70930128250934	-53.9219444872477	
525000000	-1.60135029626146	-95.2663932650125	-6.00274278278768	13.8865050186904	-5.75510447069946	13.4034610124678	-1.63742288709987	-55.3585088694918	
526000000	-1.70573207132905	-90.7188323301421	-5.51147434563307	20.1020450017822	-5.57718706873757	16.5211898627616	-1.18620879327783	-57.3657556859604	
527000000	-1.25675262730051	-94.426151571367	-5.43152323569066	15.1797500288393	-4.68010649440084	12.3934698154632	-1.49132677096539	-60.0702590810069	
528000000	-1.67268643711361	-94.9550643207162	-5.36259816301481	13.6582818629551	-4.89634368503596	13.4685519893504	-1.57062438452522	-57.4417979459357	
529000000	-1.62356580709101	-94.9393798369927	-5.11005469364891	14.4700558476602	-5.45467766228117	13.2442888522393	-1.06208969043475	-57.106475135487	
530000000	-1.35199473819293	-96.1828099808218	-4.81740675285894	14.4839698475672	-4.97113830600545	12.7785001423341	-1.6932609439775	-61.2085474062755	
531000000	-1.54756791882206	-97.5299160310745	-4.95342953165605	11.6842868704427	-5.19701117808004	12.0221797450127	-1.57444775404757	-59.3268259506177	
532000000	-1.42841446070914	-95.5102370040239	-5.09406907507339	12.4310740163896	-4.87341114643016	12.9986941258181	-1.48834243123863	-60.6832706874325	
533000000	-1.47309779208163	-93.7305796363939	-4.89716234022834	9.84644367822821	-5.30979127123202	12.4212889658913	-2.03961484005817	-62.1772125998567	
534000000	-1.67047863971619	-92.5900686653828	-5.44403558278926	12.5896566118815	-5.36048365758976	15.5841985176159	-1.53248886646957	-62.8278648128916	
535000000	-1.3259613731154	-94.8808905429644	-5.0158633440102	10.8297019950075	-4.67516812057786	10.436032365278	-1.80466251761139	-63.3020535764295	
536000000	-1.85550361507719	-94.7364214462141	-5.13372072968707	8.37868188467593	-4.93356095630654	5.59308659854651	-1.63487995830384	-66.2415458866217	
537000000	-1.80275563809639	-91.784541521174	-5.54426263776063	8.52221103246048	-5.34491581768391	10.1900789754615	-2.19435085501834	-68.6360351759836	
538000000	-1.64191085168823	-96.6806556168021	-4.60495293777448	6.89797186217694	-5.21434076483671	9.30414154457776	-1.59729783130131	-65.3312518014782	
539000000	-1.51655877299915	-98.0801930468619	-4.80697736572079	9.02021214407886	-4.71369569017584	9.49072230458682	-1.41292848132284	-66.9540345510318	
540000000	-1.42623819195861	-99.7914769196886	-4.91673481981882	9.89207539829127	-4.87462171438659	7.34248282228463	-1.91584325985627	-65.5387521059471	
541000000	-2.13537849835959	-95.7410771768458	-4.8398515851555	6.28896585786926	-5.35734513296415	7.75931701222807	-1.69653577878916	-68.196528252097	
542000000	-1.61285179073732	-95.4523876335586	-5.18849835589962	6.01849191348343	-4.74580437790821	7.62624159461923	-1.84240574882958	-71.3102234504974	
543000000	-1.94347129225967	-99.7401823832345	-4.89469631736165	2.16403351315536	-5.26348177917503	7.06141663650311	-1.95142965645302	-69.8325810882519	
544000000	-1.42216460303097	-98.7501941856938	-4.1224502970825	5.64740435983319	-4.38950498745014	7.0421667083654	-1.92990285493801	-69.7348598038632	
545000000	-1.59780717533154	-96.3290151493929	-4.45608405434097	8.33918960118135	-4.91836008660619	5.83239881887962	-1.94177508846782	-69.9350738481544	
546000000	-2.12617508015588	-99.8715247899768	-4.50070842152016	3.19873283207498	-4.83846395398224	4.53163423360157	-1.80852168890261	-73.8552388219826	
547000000	-1.8776854657689	-98.7988610034312	-5.22600546118605	5.80190644180168	-4.48477736908321	5.06339258917277	-1.96732679422437	-70.7978471933005	
548000000	-2.3102769086761	-100.530409321884	-4.57118275681252	2.62934657464346	-4.47733746082303	4.42982757017142	-1.71368672287557	-72.0435089745557	
549000000	-1.87402663152794	-101.450277955277	-4.65121642615154	-0.550433101477196	-4.62925842596901	-2.46753221982242	-2.21963230498236	-74.5886094528688	
550000000	-1.83244487493259	-102.698319048619	-4.34782782307244	4.10605498557875	-5.01515141774221	3.19261734749062	-2.03980739924089	-70.167684428453	
551000000	-1.52802637971861	-100.216671739281	-4.84506413826528	1.38034125099704	-4.36382538146272	-1.23894422394268	-2.36332454379375	-75.7085909159738	
552000000	-2.33032966148841	-101.260051402436	-4.47982827782496	2.47581159997697	-3.88778762433801	-2.24953003666692	-1.61624900356704	-74.9425315877086	
553000000	-2.37121902124006	-100.901491039281	-4.226370989686	2.18019741285663	-4.78491075347608	2.90576055107742	-2.31614477298022	-75.0158046790645	
554000000	-2.0517291473815	-101.299623256179	-4.04423265929063	0.80269923498163	-4.32735090887339	-1.12340561079176	-2.48964802107515	-77.1107820042435	
555000000	-2.30387681300809	-102.201085359764	-4.01882855375965	-0.497632683523356	-4.5184955436684	-0.804019510421626	-2.10793646126044	-78.7797994951114	
556000000	-1.62717055980835	-101.595164107952	-4.53998275710769	-1.19619053994907	-4.12167181768882	-2.45200866546065	-2.33570689607139	-74.5740017579828	
557000000	-1.88938120050368	-106.006632382397	-3.76515612960061	-2.62453284093398	-4.11518805739226	-4.51353335207112	-2.46739152800874	-75.4512063363637	
558000000	-2.27927370680222	-101.654777805099	-3.9950888924418	-0.346550433100915	-4.067510413745	-2.79083017613935	-2.4074099664935	-78.9103783981816	
559000000	-2.35920571685787	-103.278451873004	-4.10716966337559	-3.8967682820839	-4.20954956821579	-2.6533091109431	-2.44779683860189	-78.0903052097785	
560000000	-2.50043109203904	-109.583374248908	-4.36600087953573	-3.07865759615973	-4.24022539744004	-3.56609584896062	-2.28799782041314	-76.717925100422	
561000000	-2.63030809192751	-105.605609085665	-3.92452540541602	-2.27975761728478	-4.08088677047794	-4.00172871958631	-2.26828230050178	-77.7347848882147	
562000000	-2.70062875297623	-98.7713924680684	-4.05233944537531	-1.20840207962463	-3.84040359867809	-5.13506811622897	-2.20590582689389	-84.9942083632458	
563000000	-2.837520652234	-106.724607277419	-3.93376049766889	-2.85579251163342	-4.20955620964112	-3.15483476780932	-2.44964952044816	-79.3291534271373	
564000000	-2.53076794844277	-102.210649808569	-3.92311487263288	-4.2329083696268	-3.49605958308489	-4.09542365331072	-2.61844347194851	-86.8958382559859	
565000000	-2.55033121652516	-106.37149630185	-3.14661983602149	-4.37005404795957	-3.68552521266239	-7.80344794229902	-2.08948961209095	-84.5706385772605	
566000000	-1.94515213385575	-103.229055275748	-3.90528471147839	-5.7885483461176	-4.05028824283536	-5.3952090291934	-2.40410390971734	-85.737232766188	
567000000	-2.80698841784254	-107.037834935318	-3.75783357387388	-5.69947748316894	-3.56444047692708	-5.73659032118615	-2.05986160791093	-81.5639560809826	
568000000	-2.23825015447177	-107.092363468094	-3.68395068649296	-3.80690062944386	-3.8144697779542	-4.0972386894118	-2.5109901300122	-84.6913836442227	
569000000	-2.00395883469547	-109.448524328227	-3.30506984985578	-8.90959156919371	-3.46207829771009	-6.95697351171594	-3.14042960129378	-84.6692648068456	
570000000	-3.04288669340113	-108.750385996671	-2.88780183748115	-6.85745884018663	-3.70785457782627	-6.14735529699641	-2.37432232204366	-85.5340296107667	
571000000	-3.06436933652504	-106.650564409111	-3.41654606822594	-6.89127044659791	-3.0799851573963	-11.156641088029	-2.27002187464082	-90.6586045222057	
572000000	-3.54580422356528	-110.093882698799	-3.90579938072181	-8.85963857994143	-4.16547876769059	-10.3737346539541	-2.90464238258393	-88.1367935059748	
573000000	-2.61256136909104	-107.15147940277	-3.88847764431075	-9.76746924839476	-3.31940084696592	-10.4304550526175	-2.58546359178893	-87.6655770260682	
574000000	-2.95238066994208	-107.398829504379	-3.49216262031471	-9.32962004345094	-2.82884443077036	-9.40176049341575	-2.5581066929227	-90.6497539893188	
575000000	-2.93357931413713	-106.885184336077	-3.25316738764809	-9.22113014848737	-3.10112655069022	-9.19898512679504	-2.58124236608583	-91.5785887384404	
576000000	-2.42953962548694	-112.868087130157	-3.04110726658305	-13.0262453250013	-3.58359433961913	-13.2446015368332	-2.76556570093301	-89.1324692335669	
577000000	-2.82120999465639	-111.534884061553	-3.29212682037322	-11.4643763020847	-3.3897404580172	-12.4739166945819	-3.44275533229223	-93.134430426581	
578000000	-2.81552831024468	-112.319434345001	-3.02985901393431	-13.407772769342	-3.33041645300223	-13.5040581838107	-2.91706740830859	-97.0328504571454	
579000000	-2.61767045087897	-108.468538313437	-3.16264678075021	-10.420178694435	-3.60890532491988	-11.9311808883802	-3.12270430965068	-90.8697011299499	
580000000	-2.72114276406262	-109.680463079179	-2.86447384263894	-13.812709341007	-3.35742791537997	-13.6661609529007	-3.23424594120462	-91.3825901996273	
581000000	-3.60342086484248	-110.226983246983	-3.3981979256854	-11.4634937891161	-2.70927692536654	-14.4250165622506	-3.03285393013531	-99.0900488529728	
582000000	-3.41899587837362	-111.62263279665	-3.52811108445826	-11.0983550484705	-3.43080567253373	-12.6089834132405	-3.17843687060548	-91.7413770757719	
583000000	-2.7546905300161	-109.300982719943	-3.17229080359017	-10.986148598186	-2.78551288289462	-14.4024420941547	-3.40055701830267	-96.833373470747	
584000000	-3.28257882107751	-112.374383616486	-2.74386269502462	-14.59643807751	-3.12445072105265	-16.6241877941707	-3.04072237493713	-93.8663890621384	
585000000	-3.19647673379373	-116.267033261113	-3.41935121123868	-16.5053009598039	-2.86058342401129	-17.5876265533476	-3.3953864237287	-92.4342693037969	
586000000	-2.87525060973126	-114.840361214774	-2.7436579408115	-12.6805581648394	-2.98901231026552	-14.2837304362966	-3.44778256583941	-94.6456477532011	
587000000	-3.54246671267239	-116.225770001383	-2.85691890403759	-16.5893645679496	-2.65115356430168	-16.9336495349573	-3.25527512576904	-96.5252726686664	
588000000	-3.84567472454677	-117.709772780133	-2.81612835060422	-13.7430284512861	-2.8824979297631	-16.7232720099409	-3.33962420185041	-94.4462860320561	
589000000	-2.4429842303664	-116.401578095687	-2.62521359149222	-16.1077984838588	-2.62346044201746	-20.8308236231973	-3.99724714165111	-97.3570617352782	
590000000	-2.92544136433326	-120.523441299686	-2.3380199631747	-21.2367294766535	-2.63957711988518	-17.112093873472	-3.07656236936597	-96.2990544969065	
591000000	-4.03690006986972	-113.532210836029	-2.77710022849069	-17.6321717799084	-2.66356036194823	-17.2563135046651	-3.567833754779	-99.6646851486931	
592000000	-3.03289504547863	-116.970210246597	-2.86732279918347	-16.9509486853116	-3.37516584234695	-18.4391910399692	-4.79378216761058	-94.6815656237167	
593000000	-2.98166687238687	-117.795411008274	-2.42116389213953	-23.183694968592	-2.97846360968051	-24.5066484002075	-3.23815153679631	-108.765464793499	
594000000	-3.04820109421865	-116.707611247214	-2.50980377975279	-17.6718175040679	-2.20400501633085	-21.5420292484054	-3.85538334570642	-103.88558505157	
595000000	-3.77693134572166	-118.469583258459	-3.2008293831723	-20.5599558507072	-2.62337179734617	-20.2295625509115	-3.93614542319707	-101.116906583687	
596000000	-3.65172741382797	-117.708594585216	-2.66005710774706	-19.0692231063659	-2.55523063738537	-21.2644278354181	-3.37534168211349	-101.074312393565	
597000000	-3.60320626655257	-119.769287664678	-2.87668054210929	-23.0439112360342	-2.38013200130875	-20.5922960419293	-3.58271651166527	-102.393171933483	
598000000	-4.46231611746365	-119.495490329911	-2.49641278745791	-17.4655643941479	-2.8172104218886	-20.339713467124	-3.57941815607594	-108.072837194059	
599000000	-4.12834969308427	-119.151417913046	-2.30346026473327	-22.0771894750603	-2.09027090122904	-23.4463636172823	-3.28139207329227	-105.712009914907	
600000000	-4.14953234696445	-118.219795088515	-2.5616991200302	-22.4902383638509	-2.34585093656208	-20.7183213659882	-4.1682840094241	-102.234256708237	
601000000	-4.93546983501846	-121.08076809221	-2.122059091358	-22.8659409799723	-2.44290872633146	-22.1300905414069	-3.72868533320672	-104.351369839339	
602000000	-3.90643188168673	-118.657369934514	-1.85250671941301	-27.4206260923534	-1.88016307804489	-25.0851594714711	-4.08052008509472	-109.659702307619	
603000000	-4.54707598347413	-123.145172767116	-2.30197208063808	-22.7404444232154	-2.08645054144752	-23.1222804263778	-3.84308439239216	-108.1693049681	
604000000	-4.20842353435193	-122.116028287567	-2.37144389882528	-24.4537408097846	-2.07790816633292	-22.6495445533394	-3.87449138222075	-106.17773496739	
605000000	-4.44613675777498	-122.392408581675	-2.06292745236681	-22.348106864299	-1.95916795189344	-23.0337530442657	-4.01957090456145	-108.858641042769	
606000000	-4.02874295290882	-120.477024636644	-3.1190178146415	-25.9397567125605	-2.86767373938315	-25.0815137289915	-4.80214974898153	-119.467720984702	
607000000	-3.81274755585739	-123.293528304503	-1.97227785117838	-26.8912337219243	-2.17262692934003	-25.2085212408638	-4.33324018521325	-108.286008932219	
608000000	-3.64241174524162	-123.551764843384	-2.40543285443115	-29.2010715839502	-1.93337124033688	-24.3813524251535	-5.12773139750365	-114.737211346873	
609000000	-3.56758310322184	-122.280791424028	-2.02901298961751	-27.8911380856942	-2.5834372254001	-26.0525034207695	-4.64591522630276	-111.891103673497	
610000000	-4.50692031779733	-120.069997555677	-2.4126538704061	-29.1708280478874	-2.16050307205816	-24.5499210233882	-4.08968391796487	-113.246679279921	
611000000	-4.14605319229365	-128.473466828885	-1.35960214988303	-29.457933710122	-1.95045694707001	-28.228906979653	-4.19054273457163	-106.771518896184	
612000000	-4.1899846254055	-127.894267545349	-1.95796302879785	-30.329055921121	-1.78826735186534	-31.2244531489712	-3.76215270803987	-112.992261378719	
613000000	-3.92159503431155	-131.039659645033	-2.01595932387082	-30.4001612720729	-2.00251375391208	-31.1117203914489	-4.49201515542413	-108.10808537792	
614000000	-4.45062604312265	-126.648041254057	-1.95486532637223	-28.3322089583905	-2.09757577855184	-30.8341779793124	-4.57494019946168	-116.504176764427	
615000000	-5.19836832006991	-128.769535209487	-1.92475706588414	-27.4200483270403	-1.91793566720983	-27.6010180084012	-4.82753785374758	-116.76863262816	
616000000	-4.80858029336204	-127.385733584788	-1.92888746421254	-29.2945461214074	-1.45747755172769	-30.5836048633246	-4.69948360708351	-115.541024297793	
617000000	-5.47101428469025	-131.221362379248	-1.95544850849928	-30.9318133913071	-2.00917347061698	-31.8318845164597	-4.58781722198018	-115.90753129631	
618000000	-4.50075023721926	-129.275209997645	-2.17438072637181	-30.0173261957019	-1.78799095619722	-32.0689017446535	-5.54307970281243	-113.483624241448	
619000000	-4.99049433028405	-126.313152478928	-1.86198788345452	-31.8936388299213	-2.37983490245316	-30.2140706590634	-4.6185884713899	-116.184481983125	
620000000	-5.08368012461991	-127.723878414648	-1.72270472612878	-30.83733035014	-2.1510699493035	-33.2325121065812	-4.44639729159065	-114.994074068935	
621000000	-5.02089307634019	-128.599255437117	-1.70498885058299	-34.4730150708635	-1.73935222423317	-31.1359947710723	-5.51269469728003	-118.132739498582	
622000000	-5.08557546868714	-133.216907706559	-1.93467189762005	-33.6212889292703	-2.0481776872012	-36.1028489196408	-4.49369582944235	-118.331057269609	
623000000	-5.12200826630527	-135.127082790305	-1.65413357491542	-31.7736195131746	-1.98561570986112	-36.9163796348614	-5.0110954799838	-119.529187964523	
624000000	-4.68601576681931	-127.805165956748	-1.53707289475724	-39.0554607434629	-1.6428856210572	-36.0276887657662	-4.99982588760401	-127.972157405677	
625000000	-5.3492214579751	-129.150442926835	-1.87856271272657	-35.974924914456	-1.44563936833369	-35.2484273780799	-5.15289338862813	-120.251810947004	
626000000	-5.19146640042028	-132.076071236086	-1.52803048643945	-36.6020936958688	-1.69171893374809	-34.1484069049023	-5.23054720832115	-116.806271832337	
627000000	-4.81408707710612	-132.231203142367	-1.65844882293529	-32.4213902708723	-1.94157446010552	-35.522598520369	-5.93324526880734	-120.290034141932	
