!Agilent N9923A: A.05.17
!Date: Sunday, 01 January 2006 13:03:05
!Model: N9923A
!Serial: MY50371189
!CHECKSUM:1657285070
!Correction: S11(OFF)S21(ON U)S12(OFF)S22(OFF)
!S2P File: Measurements:S11,S21,S12,S22:
# Hz S DB R 50
2000000	-42.667633662725	-8.17827797641332	-0.0518386817171739	-0.399284915166158	-0.0420523474218754	-0.52096558721145	-42.7633421424763	-16.3740456583936	
7998000	-43.4195219807053	4.67619832306198	-0.0471695852941645	-1.162058250886	-0.0326335229115833	-1.25343343518161	-43.0923222050526	1.13925314691144	
13996000	-42.9622750574878	17.2795016739611	-0.0490340011846315	-1.86272744388978	-0.0411119301339414	-1.94663459891331	-43.1256232043628	11.2964239413508	
19994000	-43.383805437068	30.0301697704207	-0.0486140861126615	-2.5524962025439	-0.0400942690664976	-2.64497261620962	-44.0353362892044	20.2301523167473	
25992000	-44.9111232199506	40.4185860467923	-0.0472255232742619	-3.24913095956234	-0.0386387369366644	-3.34545476393866	-45.9253213042612	35.327998298697	
31990000	-45.4272224980358	56.8561317539253	-0.0482320342566786	-3.95059365937831	-0.039052675976108	-4.0362156135546	-47.021234399169	53.601137879671	
37988000	-46.1017974650127	78.5696928543563	-0.0484643815934937	-4.63621326583118	-0.038183731881016	-4.74088749782521	-46.858871339226	73.402649978632	
43986000	-45.8673593603589	97.5644561744966	-0.0501784807688896	-5.34098756270506	-0.0397301144080233	-5.42935145735697	-45.8977496438092	96.8188611211597	
49984000	-44.3055269345579	115.369866729339	-0.0509955654039376	-6.0248518916055	-0.0416507237996391	-6.12994561101447	-45.2301124994666	110.354669069716	
55982000	-43.5250009061257	121.534332653734	-0.0509192512007728	-6.7425849361483	-0.0424976905530347	-6.82743757616429	-44.041408992199	123.719249706272	
61980000	-43.203505227368	131.199071711715	-0.0538329549099056	-7.43721883838455	-0.0425418256305898	-7.52229801749587	-43.4859917174842	126.172374968372	
67978000	-43.1674161041019	135.344413353383	-0.0539040982507954	-8.13716548445579	-0.0441480420970112	-8.22481989947251	-43.2101937042185	129.672242391695	
73976000	-43.9977349103897	138.929976921788	-0.0528113788723867	-8.82763840502814	-0.0427642712181357	-8.92094792838729	-43.5955773559103	127.248359477477	
79974000	-45.4948178542615	136.966876988836	-0.0503444345163972	-9.51998070055159	-0.041430159458983	-9.61701022218749	-44.6874372845048	124.593187548911	
85972000	-47.5231007877387	132.011069005308	-0.0493477691007576	-10.2158695777122	-0.0411116137077005	-10.3002505399989	-46.4834915458638	113.646938974834	
91970000	-51.2617157388252	114.136456742632	-0.0490349376259473	-10.9078942960023	-0.0391929835837019	-10.9921898438281	-48.7052167884128	96.8450743054829	
97968000	-54.6635027087474	67.5302113013979	-0.0465302131834124	-11.6065835312523	-0.0386684361764008	-11.6838007815194	-48.4729194271454	65.3906976285817	
103966000	-50.4231390556905	22.5352931618925	-0.0472351786104219	-12.3039349948133	-0.0388662874291578	-12.3842974393323	-46.6699589678287	40.1070039146416	
109964000	-46.4953262277801	12.6517436285106	-0.0480957325650786	-12.9942317401279	-0.0387630429627011	-13.0770961245394	-44.5061459293258	24.0757163084749	
115962000	-43.7355668815257	8.04950833890772	-0.0482547955021409	-13.6960955271409	-0.0393622207146918	-13.7839627355564	-42.2980095039789	16.0688269501479	
121960000	-41.6616419803704	8.09729823982034	-0.0494504428563029	-14.3971554598914	-0.0397591515020006	-14.4756018660523	-40.6161505170685	12.0502126676514	
127958000	-40.4835867410587	9.25501089154016	-0.0474190433267389	-15.1092499576004	-0.0404047977334319	-15.1851056517587	-39.649745661849	13.2556804172736	
133956000	-39.7435364228063	13.9033475495504	-0.0480121243763135	-15.8108176048901	-0.0415634320058618	-15.8880414570525	-39.1460814071214	12.9695759060355	
139954000	-39.1301096443421	17.5169952487091	-0.0489942828129675	-16.5304460316062	-0.0414645086017741	-16.6090344594734	-38.5805068321131	15.3973940236531	
145952000	-38.8704066491141	23.1821258193048	-0.0513147479196052	-17.2408524921512	-0.0425320333117058	-17.3239913988733	-38.3414915407155	18.902702139928	
151950000	-38.8806971201821	27.5494316187449	-0.0513378559826922	-17.9438722127407	-0.0447023815481679	-18.0143978436339	-38.4949191677257	21.7162017474064	
157948000	-39.0423162361957	34.2178937030134	-0.053614201344315	-18.6254741483885	-0.0461928980921002	-18.7187984565867	-39.1715392047067	27.0490503119265	
163946000	-39.7262231803126	42.3828760733813	-0.0545345272738618	-19.3158066067632	-0.0455142180272755	-19.3885236235308	-39.984659769962	33.3129045329311	
169944000	-40.1243901235523	50.022282568661	-0.0541892808124768	-20.0111619369129	-0.0444899079887803	-20.0637420338937	-41.0407706682771	44.2147978322342	
175942000	-40.8016606257964	62.5310599490496	-0.0513660553153643	-20.6944820002952	-0.0447926669253127	-20.7616859936914	-41.5341024257134	57.9036000627681	
181940000	-41.1249966836635	71.4042312002606	-0.0516892746108154	-21.3890932753884	-0.0455568872256884	-21.4767590929154	-41.6685754140999	70.1414614778789	
187938000	-41.0143262818121	80.4025227378709	-0.0527826185578013	-22.0900337701538	-0.04374475058276	-22.1581725214544	-41.4038938237131	79.5099085256527	
193936000	-41.3262872276723	89.2090354428591	-0.0531759789239177	-22.7723020125939	-0.0450893019617708	-22.8561417768272	-41.5806931410603	84.0056835695143	
199934000	-41.788753112732	90.9295992677939	-0.0528446502046448	-23.5199561529612	-0.0434944189214181	-23.5706393884032	-41.1934891649239	88.3004406936266	
205932000	-42.1537813916261	90.699729036555	-0.0528497122128428	-24.1722093187506	-0.0457145039089846	-24.2601321950308	-41.7185362900946	89.1941203830028	
211930000	-43.2178538586591	87.496684847947	-0.0529105336498177	-24.9215599900017	-0.0438274823422436	-24.9632639239516	-41.8283883555254	83.7734522446989	
217928000	-44.5873121879559	78.0035857542305	-0.0528714432119177	-25.5467989230579	-0.042664208430496	-25.674358386929	-42.3236668788736	77.4147998691234	
223926000	-45.1941689106847	57.5209607741333	-0.0518002670351021	-26.1915189149726	-0.0443793673033619	-26.3210521420252	-43.1940025154718	64.5295026983304	
229924000	-44.3540112918716	38.8405193423767	-0.0504449576700419	-26.9413400375766	-0.0404343467590098	-27.0300276211636	-42.7249937812935	49.7892868286045	
235922000	-42.7988417986706	24.1922769864414	-0.0495061675985433	-27.6507204712034	-0.0392333167891592	-27.7269505521561	-41.6720025136575	36.01192088698	
241920000	-40.7977177063265	13.55770656217	-0.0484087681009958	-28.3376171412577	-0.0399066241873233	-28.4251268625022	-40.2322174558854	27.0484462332661	
247918000	-39.2055329169005	8.90049631403574	-0.0482089851312888	-29.0382851890281	-0.0412311076690947	-29.1125850890364	-39.0750196100846	18.629220021274	
253916000	-37.636214336233	6.22217127106087	-0.0510927093916354	-29.7414626870557	-0.0419980663482623	-29.8087736513763	-38.017325885574	14.7482266231487	
259914000	-36.593984107396	5.85304709336681	-0.0496502850257385	-30.4385831982617	-0.042399165461141	-30.5072400445382	-37.0922155598717	13.0360839906437	
265912000	-35.7334165094889	6.5151534342626	-0.0501193133754515	-31.1336742686348	-0.0414597849547084	-31.2072507192017	-36.2657748438269	13.0347656131533	
271910000	-35.132495133987	8.4564886148836	-0.0498107365417256	-31.8234198349132	-0.039782216655595	-31.908101122454	-35.8831886892421	13.1906897957263	
277908000	-34.7389645768859	11.1073764689008	-0.0493880673194172	-32.5382632139575	-0.039819869323587	-32.605261640964	-35.835069944032	15.3870646036001	
283906000	-34.5586955280151	15.1199020664255	-0.0473243176824667	-33.2449633065418	-0.0388432830016999	-33.3038903914988	-35.8634104352668	18.1503213790541	
289904000	-34.4908622903809	19.0650049704405	-0.0473632582397453	-33.9449859964786	-0.0374475137974763	-34.0119123868285	-35.8167135317407	22.4999343925856	
295902000	-34.6631262757947	23.7401831688237	-0.0434865552074931	-34.641550860607	-0.0371366932771289	-34.7185365734751	-35.9752125823459	26.1880669999853	
301900000	-35.0289923782933	28.0531304834989	-0.0439927283829074	-35.3659229386406	-0.0352317059393416	-35.4206235059699	-36.3132090682381	32.1983605842043	
307898000	-35.1783412861485	32.6558307282214	-0.0451002881745877	-36.0584319741339	-0.0360900602772605	-36.122867772849	-36.8473072921605	37.6745277609762	
313896000	-35.839316164268	36.9795074150181	-0.0497152305804047	-36.7627870112022	-0.0383946350853231	-36.8296917368717	-37.2880887595884	41.9749984529386	
319894000	-36.4163601002708	42.2002974472723	-0.0518010439429489	-37.4611382450866	-0.0434199657521109	-37.5291538657218	-37.9304529884007	46.6670015329485	
325892000	-37.0897088801957	44.6448978327067	-0.0565158327236728	-38.1697385302023	-0.0464367886289598	-38.2213570587665	-38.5537782938287	50.7422575334254	
331890000	-37.9894303995785	45.4158738717777	-0.0574854121068918	-38.8545815194857	-0.0499354860775685	-38.9363364579784	-39.6789062071057	54.7892752936347	
337888000	-39.0753294955335	45.0891720475719	-0.0600331746321451	-39.5567505136079	-0.0521798851893036	-39.6194411497163	-40.7859052457213	56.849434944098	
343886000	-40.2956070554707	42.0609585516027	-0.0634333900776427	-40.2413792129008	-0.0547401471553784	-40.3173121646633	-42.0652323336909	57.3579561123979	
349884000	-41.6365460467112	35.209377835067	-0.0643870514189745	-40.9281095909734	-0.0565164516908316	-41.0024503189805	-43.1531021059657	55.2575994652614	
355882000	-42.5243421913479	22.0124768868779	-0.0636037029373316	-41.6203122563412	-0.0558077199078821	-41.691520077874	-44.3904965685436	48.3922428976429	
361880000	-42.2937197487869	8.53874045509213	-0.0639338580733177	-42.3005544836495	-0.055302941306714	-42.3649795048702	-44.7702128488941	37.6139716469626	
367878000	-41.4029682138361	-6.36782739403819	-0.0625289792465182	-42.9939505930446	-0.0537042165374283	-43.048694065237	-44.4535649530557	22.4295668547588	
373876000	-39.9249691019767	-15.3405434461918	-0.0606347869577383	-43.688305071539	-0.0505313770273187	-43.7365576686807	-42.8488393363202	12.9331946409842	
379874000	-38.1987558158442	-21.2041147564474	-0.0593621579760287	-44.3920611204198	-0.0508860309308414	-44.44270363784	-41.1911131844685	5.25621591156282	
385872000	-37.0321214820808	-23.1575267995221	-0.0587340003452764	-45.0825943863838	-0.0502717644238802	-45.1303350542923	-39.5456691030495	0.420342415180044	
391870000	-35.654357822396	-22.5037954996765	-0.0595592243377316	-45.7909293176969	-0.0514564871415765	-45.8326425390696	-38.1520817026346	-0.549739919154154	
397868000	-34.9201227804801	-21.8013301736505	-0.0622958246869442	-46.4850129796141	-0.0504870562591481	-46.5340099874704	-37.223368604511	-0.00829999833521841	
403866000	-34.2790992131428	-19.8587104513331	-0.0628216058012712	-47.1789420046088	-0.0504145919259986	-47.2381804230002	-36.312719522104	1.2708881206072	
409864000	-33.8199967268912	-16.5999620471197	-0.0597760840796438	-47.8925213481889	-0.0524662702602359	-47.9372138508654	-35.9173286159667	4.20524517860975	
415862000	-33.4152390692938	-14.1946735889684	-0.0568276904689839	-48.5790261361439	-0.0504879123304436	-48.6363221883061	-35.4748515139799	8.1436260296312	
421860000	-33.1310220854805	-9.92640044262691	-0.0570754417875915	-49.2812859210287	-0.048926394413251	-49.3401052406309	-35.0989117600771	13.2518863841286	
427858000	-33.0331019575074	-6.77332961396646	-0.0566541347148923	-49.9821081293514	-0.0475009899972062	-50.0310052108225	-34.7173231523653	17.9320815537128	
433856000	-32.9899791850048	-2.43491497737776	-0.0570464095608376	-50.6865243319086	-0.0461361945033023	-50.7293991256606	-34.61718352679	23.8708148072639	
439854000	-32.9977362925816	1.44538862558614	-0.0540125135327206	-51.3857043836745	-0.0450164766030935	-51.4104195330588	-34.4405463937006	28.6778715501771	
445852000	-33.1202006687867	4.21888273969037	-0.0522592589349248	-52.0820538761001	-0.0455580191364718	-52.099801165261	-34.3092183675361	33.3670758696829	
451850000	-33.1467211960716	7.09194788055316	-0.0544475363975513	-52.7709273251065	-0.0436581682441842	-52.8089394734385	-34.3326156331029	38.0042872966463	
457848000	-33.4540649743875	9.12523668015488	-0.0532975789771922	-53.4784248769869	-0.0435176756009644	-53.5007404075672	-34.5013904318313	40.9776458857222	
463846000	-33.6974126073433	9.70635687982674	-0.0537340859505943	-54.1802308877423	-0.0433652050637443	-54.1998635181858	-34.8456204810184	43.8076176672779	
469844000	-33.958708883126	7.73505695331414	-0.0546586549163969	-54.8673456719865	-0.0461594907061201	-54.8851795434204	-35.2261899917925	45.878958002016	
475842000	-34.5197622742314	6.35829530767275	-0.0556719050772941	-55.5585036489233	-0.0468991208551875	-55.5818632435292	-35.9773316092109	45.9374848287814	
481840000	-34.9261632703883	3.36602260388699	-0.057003268948998	-56.263960577126	-0.047620476672419	-56.2978668654051	-36.6209751242483	45.133511990544	
487838000	-35.2331642070358	-2.73985582055892	-0.0562471701387815	-56.9738760368827	-0.0487603025809579	-56.9928710737191	-37.8646167155753	43.2283966287865	
493836000	-35.5218139348712	-8.50828416741437	-0.0580990239838384	-57.6692351722656	-0.047845661905113	-57.6804369533968	-39.1678020612815	40.9315152221571	
499834000	-35.4552207064466	-16.2610813535543	-0.0570020175271421	-58.3664453345974	-0.047565913985276	-58.3767792953387	-40.4964345631089	32.3414275426006	
505832000	-35.3001798022919	-21.96605149637	-0.058268869026213	-59.0652733204073	-0.04612356703972	-59.0666313522165	-41.6508831822624	22.9675050606711	
511830000	-35.0886821661934	-27.9205335993088	-0.0586696280509085	-59.7555233335201	-0.0485362575424059	-59.7682921997661	-42.553956716261	10.7465288523619	
517828000	-34.8677761602312	-33.3011794530961	-0.0591396375754258	-60.4546334010644	-0.0514185264714497	-60.4593342910519	-42.8845264400065	-2.60932336550479	
523826000	-34.5503916830134	-36.2974270050965	-0.0596937972675189	-61.1557130337561	-0.0500193014731113	-61.1505889751493	-42.6333762956763	-11.531698966831	
529824000	-34.397498257384	-38.9435318788717	-0.0613988698088633	-61.8529241440185	-0.0527728553418309	-61.8519526870032	-42.2071162841747	-18.1873995920124	
535822000	-34.2687582716842	-38.6862282514056	-0.0652805033379677	-62.5477042004787	-0.0544996621345169	-62.5678717855804	-41.7877654459895	-20.3901265591755	
541820000	-34.0569469677671	-38.878565553325	-0.0641668711343485	-63.2578376062575	-0.0552918937600094	-63.2480626407198	-41.7197330296186	-16.8685454036745	
547818000	-34.3108743879009	-37.6323550812652	-0.0649755687032397	-63.9423330447821	-0.0578196109890396	-63.9611376492821	-41.0744612782716	-13.74367740261	
553816000	-34.6245622293522	-35.3907480874569	-0.0678952072077341	-64.6286641616887	-0.0568394490992386	-64.6345012929296	-40.6792460104497	-6.60872277340208	
559814000	-34.7752243103019	-32.2649980138869	-0.0686617915687872	-65.3348658955624	-0.0568546754368146	-65.3426006736184	-40.1727834485329	-0.9938508701166	
565812000	-34.9872745269138	-30.4994611764331	-0.0667668846391592	-66.0335804673886	-0.0571845662444887	-66.033751879316	-39.8089184010455	5.96416459082995	
571810000	-35.3240467296496	-27.2867486525255	-0.0653103864789055	-66.7223202447208	-0.0569897198109433	-66.7287743438388	-38.7858874417986	11.2143884500846	
577808000	-35.3983105150376	-23.4127997160002	-0.065858334115092	-67.4203058364221	-0.0559067429738617	-67.4253857695843	-38.7396918130006	17.0394818129653	
583806000	-35.6777913933784	-21.0135132698161	-0.0614946236813013	-68.1313332090357	-0.0527041972354981	-68.1165715499892	-37.934270993161	20.3506530258978	
589804000	-35.7245707309909	-19.9702858588364	-0.0630421892280891	-68.8183931201665	-0.0543234999106107	-68.8261756010718	-37.6578304853017	22.7158712760493	
595802000	-35.6455318512726	-21.3640046644181	-0.0613959020224102	-69.5082014753818	-0.0529592533377357	-69.4943445432352	-37.181286479873	25.9912544472847	
601800000	-35.6788633575651	-21.052409216233	-0.0625630063158578	-70.2116005025547	-0.053209383629687	-70.1878167567623	-37.01779359448	26.256461274646	
607798000	-35.2866246948626	-25.6281434468046	-0.0619845461880204	-70.8967411545718	-0.0526593773853727	-70.9009440773633	-37.001459576603	23.9748429848989	
613796000	-34.843363312302	-29.0757901077353	-0.0651282613039723	-71.6128902930942	-0.0541338691636457	-71.5719768705864	-36.6797951999722	22.2980274398477	
619794000	-34.5928061653023	-33.5352865881497	-0.063981064042506	-72.3096465233971	-0.0531066178429102	-72.2623783208302	-36.8950505655324	19.033775304386	
625792000	-33.8066529240262	-37.9728382839257	-0.0611935848653005	-72.9936330771222	-0.0546923852968242	-72.9821911528848	-36.9094322618388	14.3959824683666	
631790000	-33.2808334615217	-41.6687907116268	-0.0619310425331016	-73.6766690834839	-0.0537945532419991	-73.6790733224037	-36.7904400862692	11.4453244363307	
637788000	-32.5898097424985	-44.9004700258337	-0.0642883338794522	-74.3871506365739	-0.0516908721946857	-74.3557207078216	-36.9540591384034	6.18480982155589	
643786000	-31.9706738832736	-47.3287889040662	-0.0608067686879302	-75.0753270978666	-0.0525742010595676	-75.0622652838588	-36.8221825864515	0.598371476949831	
649784000	-31.5312069223489	-50.4536416196972	-0.0584157406660214	-75.7873686908192	-0.049457666532023	-75.7514294046595	-36.7457082138792	-2.62908218560435	
655782000	-31.1172169787713	-52.5823216652787	-0.0590796518708488	-76.4649591067892	-0.049560451247428	-76.4680964471424	-37.072096824702	-4.22170680384511	
661780000	-30.9519375100086	-53.7846262070277	-0.0593722402752419	-77.174843290631	-0.0455856750403904	-77.1447057356573	-37.2109190983366	-7.10436165848201	
667778000	-30.8239574575819	-55.252678071073	-0.0584495306238069	-77.8566994783707	-0.048572660178019	-77.852183484193	-37.4898703654485	-7.03753446916593	
673776000	-30.8889043191318	-55.3944774473198	-0.0593483388272736	-78.5580217453633	-0.0499058471450159	-78.5598703035738	-37.9093209323067	-8.20194913365653	
679774000	-31.2305627826115	-55.9608866996547	-0.0612647493886078	-79.2615825398695	-0.0473197054440074	-79.2650703745605	-38.5052336226032	-3.65731355285012	
685772000	-31.6322784660941	-55.9435136118879	-0.0586711014454771	-79.9485076789278	-0.0495434590942189	-79.9640102924911	-39.0016446906143	1.29694475771404	
691770000	-32.2117087315833	-56.575877051218	-0.0608468649965306	-80.6675654617374	-0.0516600122632938	-80.6772387665258	-39.8921917768928	9.22298244086909	
697768000	-33.0551142358378	-57.2598926467044	-0.0616616426585239	-81.3685937641764	-0.0499115400826461	-81.3796525522577	-40.4706205339219	19.265179552118	
703766000	-34.004895087828	-57.6169667940092	-0.0632090298388053	-82.0803095726847	-0.0539662259026138	-82.0869973732796	-40.4691470021324	31.6037096210475	
709764000	-35.0804626336924	-58.3332694853183	-0.065296041772089	-82.7825853616112	-0.0529797524030079	-82.7793508225627	-40.7889737483472	41.3593396617824	
715762000	-36.0352765569757	-59.2586069501601	-0.0637577827454438	-83.4754791496407	-0.0542837103253113	-83.4979044608645	-40.1642852445461	49.0057688620696	
721760000	-37.1864377607366	-62.6330372687417	-0.0629861869964407	-84.1781677231231	-0.0532982007115411	-84.2025047823169	-40.3437402723414	56.6943024592435	
727758000	-38.1260244300347	-66.9487733379363	-0.0635524244275334	-84.8648740379507	-0.0545124044437935	-84.8840181084589	-40.2166774559488	60.3986777822678	
733756000	-38.9243686220359	-71.2164069181156	-0.064781258846649	-85.5606841670358	-0.0516405023002782	-85.5816121194728	-40.3741971143151	63.6963180501515	
739754000	-39.1443029724329	-76.6217240140204	-0.0682361548780103	-86.253303908282	-0.0558461961164569	-86.2473794930008	-40.9458201643482	63.0869292257249	
745752000	-38.5602835726535	-81.7084261531896	-0.0693736869712185	-86.9371473353421	-0.0574759551117407	-86.9334872691008	-42.0058106959284	61.2435764950338	
