!Agilent N9923A: A.05.17
!Date: Sunday, 01 January 2006 13:19:30
!Model: N9923A
!Serial: MY50371189
!CHECKSUM:0302032815
!Correction: S11(ON U)S21(OFF)S12(OFF)S22(OFF)
!S2P File: Measurements:S11,S21,S12,S22:
# Hz S RI R 50
2000000	-0.298250956716572	-0.0275582964026393	8.9750359527065E-05	-0.000134752098824065	-6.8481566880342E-05	-3.59120750061135E-05	0.10453667601462	-0.00930219482530353	
7998000	-0.282862333782845	0.0202200799934987	-4.66608558818335E-05	0.000136321775643195	-9.97009738445039E-05	6.91638654622409E-05	0.105225203163469	-0.0044665697019866	
13996000	-0.26950132104164	0.0260570873467337	3.64662013669357E-05	6.47205988495831E-05	-4.29795868984312E-05	6.66935531375405E-05	0.104899944837	-0.00464339714064828	
19994000	-0.26783607843657	0.021199361357279	-6.01192766905009E-05	2.35976155320372E-05	1.72150436081212E-05	5.93691919435071E-05	0.104370479897565	-0.00586770268900452	
25992000	-0.279316323736076	0.0178103127595555	-8.327918748779E-05	0.000112218192134514	-6.97636082248895E-05	-0.000198921425368234	0.103502324792727	-0.00884106315734381	
31990000	-0.297926754793011	0.0263954280912922	-3.85624604464961E-05	-7.6496153399081E-05	-6.46352193991364E-05	-0.000164326811357459	0.101631603695193	-0.00993371735245654	
37988000	-0.313052087619714	0.047989576335776	-3.18823729055709E-05	1.61140860776167E-05	-0.000137709727112408	0.000163508359566826	0.0997105544858188	-0.0123778385867428	
43986000	-0.313221296399817	0.0760890219511433	-1.94173587451754E-05	-2.51308839820755E-05	-2.35820648916721E-05	-5.65085058636871E-05	0.0973802789658982	-0.0153529040803312	
49984000	-0.298631799253683	0.0974705167110682	2.76550513447447E-05	-1.32995417461152E-05	4.82888070989768E-05	-0.000114996889778947	0.0942490327566863	-0.0207369360373241	
55982000	-0.27847112435908	0.102309625351793	-9.88421618721527E-06	6.29486530614114E-05	-1.48770525312577E-06	-4.11606587206657E-05	0.0944867074318592	-0.0215811122489643	
61980000	-0.266326385561172	0.093312075561739	4.30681769038043E-06	8.47406682573659E-06	2.70609277948186E-05	4.75204622266576E-05	0.092799558999504	-0.0255614715065271	
67978000	-0.269335235965645	0.0809460030244928	-3.85513399298183E-05	5.13915729464218E-05	-4.24007942205926E-05	-9.53133973389719E-05	0.0917773542993769	-0.0297818823163459	
73976000	-0.284911996489345	0.0773841656747488	5.00293135394899E-06	5.40737805618951E-07	5.15783770126251E-05	-3.9931867322316E-05	0.0910159501240458	-0.0338510174291504	
79974000	-0.302881025935722	0.0916100790932175	3.20467803806949E-05	-3.75738500721619E-05	-1.95245018789095E-05	-0.000148055087685642	0.0907042081769968	-0.0382035648563927	
85972000	-0.308639647218829	0.120541178558768	7.19166108810546E-05	-8.33898867581837E-07	7.09602837972276E-05	4.51970612467615E-05	0.0908871060655084	-0.0425615515740666	
91970000	-0.29193875058042	0.151198606873713	0.000145968804633038	-3.84405326089222E-05	2.60691360146044E-05	7.08916164998817E-05	0.0916097564853177	-0.0470293550717677	
97968000	-0.259943528167076	0.164670265607078	-7.32008027343349E-05	-1.67867475219264E-05	-1.82978778474093E-05	0.000109895413345468	0.0926705520845863	-0.0520552917109234	
103966000	-0.23136357429544	0.155843452780423	4.84842651034007E-05	2.5960769775156E-05	-5.35549297071274E-05	-5.89608815466109E-05	0.0915978596694098	-0.0576571436055705	
109964000	-0.22051158779581	0.134813568174437	4.29462690538083E-05	8.34925437314257E-05	-2.14032950924248E-05	-4.01663807225057E-05	0.0892886272917573	-0.0629989953007045	
115962000	-0.231470501179181	0.116860198576542	-1.13532906460197E-06	-1.80110792474114E-05	2.92380750821018E-06	0.000191076719766771	0.0859154003848708	-0.0658229790020532	
121960000	-0.258480240155342	0.115865632458899	1.30435383031982E-05	0.00014368386560251	7.37558244784646E-06	0.000104857772444224	0.0826138106942055	-0.0667241531502427	
127958000	-0.287781547206571	0.142254871304897	-0.000119971468399306	-5.75878610185528E-05	-9.31794361371406E-06	0.000162489406370193	0.0787469624546123	-0.067052131645897	
133956000	-0.297392231251478	0.193271415818096	1.69659509435204E-05	-2.32457430188992E-05	0.000162275526184151	5.42548001507785E-05	0.0770636106333799	-0.0664416047422194	
139954000	-0.269620400375905	0.246943964070507	-2.26324079045514E-05	1.02561734926034E-05	1.80831927940029E-05	-6.10324352152233E-06	0.0738783555991871	-0.0659416420243889	
145952000	-0.213646077075662	0.270006484138998	3.91866017814561E-05	-3.37333690478764E-06	-8.98505117282278E-05	-1.99419827853642E-05	0.070370748143617	-0.0656585623997686	
151950000	-0.164821352329404	0.251123361862985	3.24917308027907E-06	4.0404505700594E-05	1.8137303741668E-05	0.000112341745129562	0.0664639175064244	-0.0654839980844716	
157948000	-0.148173558129065	0.210856998029074	-6.88452769989501E-05	3.88865827031672E-05	-6.79604986728904E-05	-1.08451896489283E-06	0.0620333782282373	-0.0652449659236537	
163946000	-0.166866586490721	0.175169605759666	5.31969018641323E-05	-7.94501724527946E-05	9.77396237238206E-05	-0.000115441793572858	0.0576119973547324	-0.0650890303079625	
169944000	-0.208658567462714	0.161476536912616	-5.0668344059335E-05	-4.45042390156488E-05	4.06178874269879E-06	-9.98501763937561E-05	0.0532471836435854	-0.0650630650204152	
175942000	-0.259907827897796	0.180440636232817	-9.49228285710822E-06	7.79511653576146E-05	3.95907356775064E-05	6.29510988883881E-05	0.0484701649139061	-0.0652180569158995	
181940000	-0.297157062720036	0.239369293051244	-5.50810065084518E-05	-2.68767797077178E-05	-8.98032392035712E-05	-3.42965033575529E-05	0.044020244919629	-0.0654831374047496	
187938000	-0.286207339983198	0.325170232221397	7.8816572886855E-05	-8.99300451027723E-05	-4.50570479226702E-05	-6.37464806717155E-05	0.040112602150275	-0.0657302570621471	
193936000	-0.210527302051915	0.384598643308775	0.000111888175515152	-0.000133720131279978	2.39389395962374E-05	-8.53044501505647E-05	0.0368141233513649	-0.0661353045658749	
199934000	-0.11895570418924	0.372045489835185	-2.37009127881309E-05	6.4307908945309E-05	2.82616442855684E-06	-4.16339266977731E-05	0.0333860503197359	-0.0650428115115644	
205932000	-0.0725915200888905	0.312221312687788	6.63442346094815E-05	6.61915544880922E-05	-3.64032039964675E-05	-3.07798439609041E-05	0.0304711635741272	-0.0671499570208675	
211930000	-0.0737466294503397	0.253370330490943	2.30055620618861E-05	-4.75634577900557E-05	-5.68560549895655E-05	-4.7963595695064E-05	0.0277401771742174	-0.0692174333303502	
217928000	-0.106267150630263	0.216204272810239	7.04260273441068E-05	3.06634157157814E-06	0.000109447961792556	3.24775285477837E-05	0.0248244931273059	-0.0709995901911158	
223926000	-0.152479599226769	0.208157273772354	6.53440965378312E-05	3.30928107567361E-05	-3.88468708265863E-05	-9.84435265359563E-05	0.0223033059444372	-0.07227142295766	
229924000	-0.200029290771103	0.236070709768421	-2.55271932884443E-05	4.54707517304569E-05	4.26407710472122E-05	-1.06424643735354E-05	0.0206751916885188	-0.0727105568672347	
235922000	-0.22859932373912	0.305254948097551	3.87697613791259E-05	1.62317909768575E-05	6.05865112213523E-05	-1.33935376511421E-05	0.0198678665648025	-0.0732206279669046	
241920000	-0.198850189500618	0.402362579514874	6.94317482001761E-06	3.24412824255486E-05	-8.95788886859568E-05	-8.94237725005194E-05	0.0182181634866961	-0.0709960868888728	
247918000	-0.0925062090198859	0.460794352918746	1.77903464194096E-05	2.94164393692512E-06	-2.03752503229529E-05	3.63539357456397E-05	0.0178612631666733	-0.0704453231408014	
253916000	0.0173554087060346	0.427709439502692	-3.29306001364025E-05	8.35869487221119E-05	-1.42024698411041E-06	8.13569723382177E-05	0.0171015355415524	-0.0697004362684945	
259914000	0.0649583748463879	0.352744718457113	3.37366426867737E-05	-4.31386297567079E-05	-9.04509477154652E-06	-1.85734046640995E-05	0.0146778448262903	-0.0680988385302672	
265912000	0.0610741626032124	0.289520729133733	-9.04371743034917E-05	-5.66402344217546E-05	-1.42998437687293E-05	4.98908482174887E-05	0.0133198423368169	-0.065868196678444	
271910000	0.0313797641700163	0.252098726446493	-7.01298527236884E-06	-1.52338554046003E-05	-5.04494357573306E-05	-6.1977451772927E-06	0.0113569751372241	-0.0634292415745067	
277908000	-0.0110976478230763	0.241647363650823	4.68669642945235E-05	-5.19466563167662E-05	-7.48395360291602E-05	-2.4119472845662E-05	0.00885536237264964	-0.0606809272810303	
283906000	-0.0586637544056129	0.264160201933045	9.93542353132006E-05	3.13687287801791E-05	-1.81793344969218E-05	-5.92003949571483E-05	0.005910432568751	-0.0577090859081702	
289904000	-0.0900195730257376	0.327987198067536	1.00799235385098E-05	5.64418802526884E-05	-8.05366962723228E-06	1.72388377174633E-05	0.00255889448684123	-0.054015287523357	
295902000	-0.0633474876576711	0.42309728923507	3.30506151744909E-05	-2.19363850050951E-05	-1.7879146900392E-05	2.10701633502847E-05	-0.00128655186925208	-0.05066843066627	
301900000	0.0444747169234726	0.478843850057943	-2.4412927868778E-05	4.61904667437031E-05	-6.62009386548802E-05	-0.000118557224719772	-0.00559398766456816	-0.0472512963230491	
307898000	0.157132430637156	0.435266879470147	6.10684540321647E-05	-7.78969532578744E-05	2.70148619080133E-05	-1.77290527401852E-05	-0.00989269012526489	-0.0441431037560359	
313896000	0.200814058077023	0.344749433902033	3.43986920078587E-05	-1.06821995606883E-05	1.26286406659516E-05	-6.12541436111543E-05	-0.0140441241166457	-0.0406719764717775	
319894000	0.187782344818323	0.267034582566683	6.44315390861893E-05	-6.64143690242892E-05	3.09023260244677E-05	7.80354551594962E-05	-0.0177737998963311	-0.0377052560190148	
325892000	0.146512372905975	0.218316056840213	9.88973649913404E-05	-5.92615676026677E-05	-4.93769975855446E-05	1.55874601871511E-05	-0.0211309159176601	-0.0352745192863765	
331890000	0.0930795967889845	0.202425270547663	-1.95137372316865E-05	-6.18980441279896E-05	6.69283940145388E-05	-6.20646510293242E-05	-0.0241560874056926	-0.0333100124013589	
337888000	0.0406924015330705	0.223407669642937	1.45642086768961E-05	2.68137396258901E-05	3.59067425992952E-05	-3.22655652165955E-05	-0.0269034751523349	-0.0318911503333572	
343886000	0.0175938598341182	0.2852537164602	-0.000109293343126565	-8.35687767245438E-05	-0.000102918506888766	5.40903075092182E-06	-0.0290124692698448	-0.0308880922203938	
349884000	0.0620350323134803	0.360892268067576	7.47600146449561E-05	-1.68432219560439E-05	-1.63413214026684E-05	3.2403169295555E-05	-0.0304202617888229	-0.0302318440007	
355882000	0.170201764160098	0.375835790936805	1.27628342528534E-05	8.09567574145882E-05	3.62326517352123E-05	-0.000118313860266566	-0.0313094185174805	-0.0297338703375669	
361880000	0.256200180933374	0.302466249165242	-3.17802102552772E-05	-5.21473908278206E-05	-1.27967929481019E-06	-3.77877917054248E-05	-0.0292133173928374	-0.0276696268752542	
367878000	0.269953571048682	0.203929968792414	-8.54980829334792E-05	-0.000100877819611355	4.04298120686167E-05	1.44571129094307E-05	-0.0285951105723554	-0.0268689630061704	
373876000	0.232196316852618	0.131229938853478	-8.85948443227423E-05	2.37755985259677E-05	-7.76238784986466E-05	-4.08629496485599E-05	-0.0277349295729069	-0.0255512817416663	
379874000	0.172157374776091	0.0989050870696044	4.99005000047399E-05	0.000132115446216197	-4.78718953437239E-05	3.94763271091295E-05	-0.0267475800673243	-0.0241657103884523	
385872000	0.111781260694836	0.10938717134279	-0.000180420661982003	3.89951904295531E-05	1.40232587908412E-05	1.42334769750696E-05	-0.0253495235762114	-0.0218603030824953	
391870000	0.0740563238184851	0.159582294978153	-5.36226515415478E-05	-2.30687793756089E-05	5.08786229971915E-05	4.71162793172307E-05	-0.0237514793431197	-0.0194990751837305	
397868000	0.0887430317249955	0.233729088546337	-8.48654758337528E-05	2.99640738275062E-06	2.41083939655054E-05	0.000102313690649367	-0.0222885223594524	-0.015988596163803	
403866000	0.169077344317272	0.27823981120403	-6.8966788560744E-05	6.16272555430996E-06	2.48434123412446E-05	-5.72962483119278E-05	-0.0197077639189129	-0.0115229187302888	
409864000	0.262975296708453	0.239254646638106	4.29132677470744E-06	0.000107933292436544	-5.16563226642924E-05	7.29986839926902E-05	-0.0181309415950006	-0.00802373116016716	
415862000	0.292675289712041	0.146241644232931	5.91419096366374E-05	6.01881484757707E-05	9.26471868456814E-05	-4.81907768527389E-05	-0.0167527164594566	-0.00409534864340691	
421860000	0.252624007083958	0.0701823323864374	-6.63786606794644E-06	7.47982712179922E-05	-3.4501111402799E-05	0.000118690053402883	-0.0162756817443936	0.000766002200641906	
427858000	0.181162872711447	0.0428490860353134	2.63994743574885E-05	-6.31857111229808E-05	-2.50279205529376E-05	1.05744868227693E-05	-0.0159729853353795	0.00569406187027132	
433856000	0.112767762810963	0.0660573200605924	2.44789815801472E-05	3.35535939182998E-05	-9.30261144489964E-05	9.2365990927936E-06	-0.0160306943224661	0.0111360018978872	
439854000	0.0731887916040191	0.128573346650757	-7.24110405501867E-06	9.09200095668635E-05	-9.54792220035432E-06	-6.67200568454995E-06	-0.0165655891360593	0.0161919698282257	
445852000	0.0871859859362902	0.209212521203481	2.89062808026135E-05	-1.19245794990676E-05	6.64707489921769E-05	-7.74945107133946E-05	-0.0168309714593388	0.0214349894700486	
451850000	0.16563872766797	0.261296649785533	5.84567176324329E-05	-0.000101605793885492	5.64994946267396E-05	8.8169877585285E-05	-0.0163567028602032	0.0261073930923284	
457848000	0.267485464316238	0.228928961698571	7.28507085064334E-05	-8.74760951917774E-05	7.89158143704003E-05	-0.00010491655521656	-0.0158361865553723	0.0294764000516503	
463846000	0.307596019738869	0.125419594256415	0.00015510961027064	-6.09909551312347E-05	9.81948600643112E-06	-3.72905645672602E-05	-0.0156815554567506	0.0321916878478332	
469844000	0.259732820152065	0.0323560493372664	1.35524839137676E-05	-0.000101412918187152	-2.3336221629982E-05	6.71004892221667E-05	-0.0158574567613369	0.0345177403481672	
475842000	0.172757677064879	0.000669222807872323	-6.6410811984349E-05	-4.78077489785555E-05	-3.48751939949971E-05	1.55357382235265E-05	-0.0152128494121768	0.0364958439167665	
481840000	0.0948851657199373	0.0274096628791527	-1.09338881277394E-05	-4.94571762614259E-05	5.68120891599281E-05	-3.9632467612576E-05	-0.0133988597027581	0.0357770487509955	
487838000	0.0518547235886154	0.0931173122948223	8.44030077502855E-06	-3.19787210185577E-05	8.08420922342512E-05	-3.2323129051569E-05	-0.0124118385317158	0.0365249124442732	
493836000	0.0600853339856675	0.175012027019865	-7.29493525714591E-06	3.61415881792454E-07	2.49489117819923E-05	-7.33857116108018E-05	-0.0112576492730354	0.0372343560902952	
499834000	0.128917650387041	0.240496239735905	1.48613213889958E-06	-1.88629572352003E-05	6.79119435929244E-05	-0.000154705636384592	-0.0104782110230669	0.0374139855198806	
505832000	0.242083535648738	0.24018269394613	0.000117087656109977	-2.20883259174733E-05	-5.09269765694734E-05	3.78817274824566E-05	-0.00865102923476143	0.0376820230980377	
511830000	0.327417359849656	0.146566604325004	4.30093151269185E-05	7.52955686130922E-05	4.38010084553668E-05	7.93509816874484E-05	-0.00659722492052584	0.0383698249949394	
517828000	0.311353624735467	0.0238077465611991	0.000120733291905091	-4.35182687274365E-05	-6.87912793730442E-05	0.000138466302454541	-0.00417299967902674	0.0398961434952906	
523826000	0.22362250500803	-0.037044004540069	-6.07228187865541E-06	3.19114761518639E-06	4.05376648853256E-06	-2.91504149254019E-05	-0.00130308211966941	0.0417304379911092	
529824000	0.136460344458039	-0.0221684761764792	-7.62804243033803E-05	0.00015374323595104	2.32834419579628E-05	-4.0568114000435E-05	0.00277377737388996	0.0443463917314502	
535822000	0.0861236540086224	0.0373244859594334	7.2381341654888E-06	2.80567354483046E-05	0.000134226545879862	2.22641302281976E-05	0.00759069413542365	0.0466026467119921	
541820000	0.0813465298072441	0.113022243378913	-6.25152373372412E-05	-3.70988762507411E-05	-3.01969883492193E-05	-2.43386127148961E-05	0.0130357361386124	0.0477255899323604	
547818000	0.123179083532215	0.183258347662529	-4.08699853204591E-05	0.000169906488045204	-0.000125386684991734	7.16918852734757E-05	0.0170592211129956	0.0487025023347401	
553816000	0.209460605913019	0.222356016542151	-1.94968600198038E-05	0.000101184623635692	-6.06229505416037E-05	6.2050490237813E-05	0.0205558146747329	0.0488466367895539	
559814000	0.318746567632709	0.193184954154467	0.000154304794214576	-8.1400613075325E-05	0.000125499129843738	-7.64139126269466E-05	0.0226839285103025	0.0488916992027305	
565812000	0.380216050875392	0.0825289688253073	-1.81146087789579E-06	-0.000163461786709486	-3.09351748163126E-05	6.71735593639559E-05	0.0235898309759828	0.0501289061010198	
571810000	0.337081721462232	-0.033093922308625	6.55167469886877E-05	-8.21036854582994E-05	-7.67004755898042E-05	1.24242475320677E-05	0.0241995389311137	0.0518057968260352	
577808000	0.240616021822596	-0.0711999659785157	2.42612924762443E-05	5.77830215298985E-05	-7.61841037406744E-06	1.07711566559501E-05	0.0242635198749098	0.0539128006547472	
583806000	0.164633248643162	-0.0416664416632595	-3.81931384830131E-05	7.52996062937557E-05	1.16920597288755E-05	0.000126104623531503	0.0248800790082579	0.0565347123946123	
589804000	0.130216302473875	0.0152870748361057	-0.000149148766337149	-0.000114754485299197	-3.91177132906061E-05	8.12466512465732E-05	0.0254550340218985	0.0592642622635483	
595802000	0.1354550022253	0.074764363406449	7.03681475226515E-05	7.16311006228049E-05	3.78754331982613E-05	-9.89911014022488E-05	0.0265207173400349	0.0617506651522695	
601800000	0.176098275640259	0.122880860837919	3.68696053439564E-05	5.99312145657392E-05	-7.87990663349702E-06	0.000142498946726897	0.0283432692576244	0.063777473184727	
607798000	0.248109637234253	0.140539320706927	-6.92746895955711E-06	-3.40057670304738E-05	-7.73057391247774E-05	-1.84661356813811E-05	0.0302854150759137	0.0651945806611022	
613796000	0.333133628498586	0.101654820649893	1.45806317649618E-05	-5.42153130789471E-05	3.82166820038188E-06	2.80399418242784E-06	0.0330091436205596	0.0660728060033361	
619794000	0.376609958414576	-0.000381651339692173	-6.90810930271348E-05	-2.81331746236404E-05	6.49719960437418E-05	-1.82567486115766E-05	0.0363107970060574	0.0664997808309597	
625792000	0.332648471412433	-0.105907277775144	6.50397113084981E-05	1.1050355404299E-06	0.000120267769626379	-4.18865904547021E-05	0.0402372367190487	0.0663447599757075	
631790000	0.242699617928138	-0.143112371309274	-4.14306834294414E-05	5.05709147158883E-05	9.26751373702566E-05	-8.25392119503641E-05	0.0443018706851432	0.0661348763043923	
637788000	0.171463807100976	-0.118767575619021	4.86311007481198E-05	2.8497426745402E-05	0.000141700126507721	-4.67731760456877E-05	0.0486882629521187	0.0652386716603054	
643786000	0.140297740060632	-0.0688356233427039	9.27522463350849E-05	1.99397969939101E-05	8.06318896791097E-05	6.92531963047396E-05	0.0538814832051903	0.064161051254384	
649784000	0.147311968790778	-0.0173767375633067	-7.10539020404424E-05	-0.000144098636763538	0.000118880455901713	-0.000107084511628564	0.0590160075114349	0.0631991609198195	
655782000	0.186126115526577	0.0202718579142581	-0.00015244376513191	7.86127086375418E-05	0.000198535415465302	9.0805633984759E-05	0.064232128708892	0.062598322984672	
661780000	0.248823785899846	0.0278485428923939	1.37296828700741E-05	-2.06728949983018E-05	-5.84737944138701E-05	4.74087457604404E-05	0.0694803676855439	0.061488077454857	
667778000	0.315125133772561	-0.0122570424406912	-5.31737595859035E-05	5.13000981790772E-05	-5.95773639027204E-06	0.000134190123177812	0.0745981832168193	0.0606616314060163	
673776000	0.34186743905414	-0.0997190630138832	-2.00491410088033E-05	-2.02695354063139E-06	-2.49008860853418E-06	6.56355742894012E-05	0.0794579635601331	0.059770855318326	
679774000	0.296133677169025	-0.184708174594154	-0.000113071779151662	-0.000134740636779793	4.80237162115717E-05	9.33028295274653E-05	0.0841642727790852	0.0591695807632739	
