!Agilent N9923A: A.05.17
!Date: Sunday, 01 January 2006 13:14:40
!Model: N9923A
!Serial: MY50371189
!CHECKSUM:0528692217
!Correction: S11(OFF)S21(OFF)S12(OFF)S22(ON U)
!S2P File: Measurements:S11,S21,S12,S22:
# Hz S DB R 50
2000000	0.0249096812600543	-0.669210301470259	-79.6788237600064	68.3096468789604	-70.7795795612359	-133.067040680145	-19.5804269553038	-4.94602743215715	
7998000	0.0167332461609627	-1.47883727432635	-83.5426081001091	-13.0649670069672	-82.0387298335727	-109.545159037606	-19.6307751133243	-2.47954675104684	
13996000	0.0148363477924836	-2.29246142480817	-79.0387203555345	24.1462054921045	-89.2727866409338	-87.5062424363567	-19.5307253215604	-3.13919854628753	
19994000	0.001763613750262	-3.12669915974791	-78.88871956394	-69.2366427032233	-79.9265843751984	-171.65748698961	-19.6717646750762	-4.1598846874953	
25992000	-0.0157101941606117	-3.9703643038953	-83.6014368280456	-152.164806659146	-73.8340362486051	-78.145756029441	-19.8895983679518	-4.09519563099113	
31990000	-0.0365733891064752	-4.85585388074925	-84.5302448902659	1.22258232983785	-80.0061659638688	1.27728649319552	-19.9770509421719	-5.52268458901675	
37988000	-0.0536178875459807	-5.72809674203659	-87.6438497033835	-57.1610988710115	-78.2074355844672	-87.8542700003627	-20.1395348182492	-6.56012695152917	
43986000	-0.0755645816046536	-6.62913119749069	-93.7926721949579	-28.3116481772532	-81.1939895891614	4.88337866438243	-20.251852964164	-8.05217206489741	
49984000	-0.091827782083464	-7.5526463702146	-97.1649632762353	25.9153223719028	-83.4090948428133	-18.5915909325496	-20.334456281605	-10.2853491133237	
55982000	-0.106588509525633	-8.50673000896341	-79.2075440170394	91.9127442778701	-82.3093586374241	-116.966490422375	-20.5102641542594	-13.4939214655832	
61980000	-0.116767828404764	-9.43268660935251	-80.8011025765995	61.15516996388	-80.5361027480716	13.7383445302832	-20.5984558068851	-15.6370243113208	
67978000	-0.121575155279762	-10.4075618266954	-79.8689321297697	-120.971378199471	-81.2821400063148	-78.6979701219645	-20.6142379435363	-17.8681641427442	
73976000	-0.11807953307816	-11.3590712491768	-84.338472620129	123.180304387524	-80.5864711816236	-135.272509364541	-20.5538124893533	-19.9155766008505	
79974000	-0.108815688316088	-12.3070391676248	-85.2713233781915	129.46380421035	-75.0802907889615	33.8996934106671	-20.4039394246205	-22.8616078406673	
85972000	-0.0947517043172864	-13.2494064799793	-79.0656088157248	-31.6080207838651	-81.2874172850998	-9.16854610977258	-20.2288001961696	-24.8319710748855	
91970000	-0.0776277919370175	-14.1939206219185	-88.0240967105659	126.246069869252	-83.9694446198488	140.072080365865	-20.0174840771453	-26.7762474556849	
97968000	-0.0550349809028045	-15.0853711189943	-78.3549338208652	84.9086992093057	-80.3234671720942	7.50955560931887	-19.7530461843456	-28.8346561770423	
103966000	-0.0343254737657176	-15.9591980424291	-75.414263408731	-87.0722699787847	-80.0622489151655	-81.937893668822	-19.605302084705	-31.1360994941292	
109964000	-0.0135084356524158	-16.8430140436496	-89.0477623225344	172.557292209803	-80.3561782916332	11.3655760773308	-19.4289546357964	-34.4319555603144	
115962000	0.00716823813934509	-17.6976442708535	-84.7566672926676	166.39957133926	-93.3130246022393	84.9115886231867	-19.4856581109108	-36.8326418510257	
121960000	0.0224390395568196	-18.5225598965648	-91.5339031110994	-138.021852618042	-79.8506658759381	80.2101796340117	-19.5922997909008	-39.9510071756675	
127958000	0.0326854353704858	-19.3290682212665	-88.3612787909777	-179.681470250618	-82.6762827168766	72.3026147270583	-19.8493134466534	-41.1943873539435	
133956000	0.0372671109127632	-20.1417649208625	-80.4278718267474	-9.63748821784814	-76.2340363337685	168.969739995893	-20.1285726302282	-42.232029458513	
139954000	0.0372397913343894	-20.9703263072912	-76.2829717136835	-107.066605866916	-88.2142916552989	142.840574092701	-20.456092159013	-42.9911224012115	
145952000	0.0305043368466778	-21.7871113729516	-87.2214639767416	71.5642068996391	-79.2273234558269	169.663777236402	-20.7478963543066	-43.6399078783119	
151950000	0.0207729939661525	-22.624881146816	-95.9445263128148	-48.0120923094011	-75.218885599543	-23.5450185495199	-21.0319652408227	-44.3855663879796	
157948000	0.00374627058784671	-23.482852325837	-91.2846141928826	77.0001590042587	-92.8326558095719	-158.721248476278	-21.3078890392269	-45.8413006625956	
163946000	-0.0125195184454768	-24.3543037893244	-91.1770186776022	-103.549198947395	-83.751771349724	-33.9395582709445	-21.5901973934936	-47.8644593422101	
169944000	-0.0291253878645753	-25.2219932265946	-89.6368162837829	108.135918472231	-83.6562951475655	-47.1303821912411	-21.9252448002585	-50.5363286202415	
175942000	-0.0493404213746251	-26.1191537684218	-80.1249736129463	-142.153778174918	-87.2290303767986	161.685958741035	-22.2470760519387	-52.9802932329838	
181940000	-0.0658549208677909	-27.0274756070041	-91.0368248290884	-10.1209506377043	-86.7518076623825	-32.8827105102496	-22.5024719103035	-55.6842780804182	
187938000	-0.0824150278996976	-27.9583997612419	-83.8886494349199	-170.031402936415	-85.2897751429386	31.2370407161035	-22.7115315043163	-58.3598951885474	
193936000	-0.0922605678035541	-28.8948943521783	-83.6726022282975	58.9455685950258	-92.0611844910566	-113.801853140909	-22.852956303733	-61.0836844406982	
199934000	-0.0962526672711336	-29.8825995425078	-97.9440487724543	-24.1134807731277	-77.9635136451085	-106.850143244787	-22.8026590328178	-64.9700132928988	
205932000	-0.0953254113796155	-30.7665005092283	-87.3665906435019	-4.00837498626642	-89.4706960594289	47.0424609467557	-22.8828883776528	-67.4298250776361	
211930000	-0.085786329691701	-31.7668713803287	-81.5128430822758	-26.1764400253173	-77.4448747299903	-14.4852622696644	-22.9213903184272	-69.6352018094928	
217928000	-0.0738782476325221	-32.6118201602656	-79.2932151556042	-85.6919692000461	-98.5688138067856	-177.347879228268	-22.9085206773236	-71.5405386680179	
223926000	-0.0574065065789559	-33.5083195678649	-88.5478842027111	-33.3732327471958	-86.8878416277875	-34.3539777601145	-22.8605272634355	-72.9334099223051	
229924000	-0.0365275838970568	-34.5004613361295	-94.7464999911518	-13.2684271397601	-82.2793186521092	-84.1629446213603	-22.8478682616022	-74.2221192424737	
235922000	-0.0139297402768614	-35.4080301580176	-90.4462596537408	-130.515879369314	-81.0838431152629	-19.6303936236232	-22.8650972079698	-74.5651695330597	
241920000	0.00816568156722946	-36.2832131696644	-78.4559531512515	-166.112817723858	-80.1841908749133	-91.270476186084	-22.4786231578104	-75.9454919252952	
247918000	0.024658356860953	-37.1451911815415	-82.8381942992298	61.3279228178154	-83.6472512428896	68.8113417163642	-22.5930045413762	-77.1987803974022	
253916000	0.0387712883262491	-37.9964444681884	-93.4281476109808	118.856693105042	-80.6047247270764	-98.3254781193867	-22.8628900655071	-77.9336065966309	
259914000	0.0475443239003213	-38.8390545828401	-79.8745848681672	152.119384157645	-82.017152981385	92.1599281167715	-23.1616454935879	-78.4592739263414	
265912000	0.0530658373716322	-39.6742201844352	-82.1031108616088	41.0652368622423	-80.486686043909	93.0926184791675	-23.4486925183187	-79.0887906960505	
271910000	0.0540991130962086	-40.5338279247969	-80.4365334269983	-30.351711371468	-85.7222765624974	166.182361704468	-23.8479590519251	-80.7784822901608	
277908000	0.0459810037252447	-41.3763159708767	-96.0812374934026	147.720740070691	-81.3438686861461	134.916176322758	-24.3487953356959	-82.9093200732328	
283906000	0.0303237621285893	-42.2383316563506	-84.8448510906037	-26.8614626547908	-87.417894192335	-172.521567165373	-24.9077884554364	-85.5423146700013	
289904000	0.0183170583876038	-43.1095093520353	-81.7171990233563	-24.1029610849299	-81.3832280824172	67.9681843291514	-25.5547223097986	-88.9092866074134	
295902000	0.00127372661966775	-43.9891923388071	-83.7050573897626	-130.512944678561	-81.9317209079006	8.95509648360173	-26.1931015244232	-92.7952265122589	
301900000	-0.0159688133477854	-44.8940254225903	-79.9232884262027	-148.661963273769	-77.4671526961249	-98.0011747345455	-26.812098755124	-97.7023276578564	
307898000	-0.0330399625331464	-45.8105140499601	-79.7331500229406	-2.48984968916924	-79.5005195427113	-125.160452828769	-27.3076033005237	-103.0618045777	
313896000	-0.0497614002107789	-46.7720078871801	-79.7832948231236	-49.5131950115198	-82.954673727733	-155.913890554165	-27.7440480789552	-109.148252609271	
319894000	-0.0648158872154374	-47.7291079562191	-81.404070565176	-88.0155024636159	-78.3865035219163	-2.64634107013374	-27.9765078520675	-115.33317817496	
325892000	-0.0742559527471405	-48.690099054638	-82.229306657598	-88.4533684617564	-80.8296887525853	148.920403051066	-28.1082798190834	-121.286773767717	
331890000	-0.0804732609030557	-49.6684309239962	-76.0570929297262	12.0971279533077	-82.4002343686982	147.764987176771	-28.1091688134463	-126.179317920116	
337888000	-0.0816762528589115	-50.6256146859668	-79.7669223364171	-2.12591033551685	-84.1960942294193	19.0772520269993	-27.8827210875959	-131.536027281438	
343886000	-0.0797776958264154	-51.5825362758555	-83.5003715156509	25.1763291830835	-84.7781756270099	-53.6510120515082	-27.8512179170136	-134.511870750068	
349884000	-0.0698025471504176	-52.5208530661483	-81.0086222362322	-39.5842663114306	-82.9449769979068	-65.192928032826	-27.8698061533317	-136.891206715047	
355882000	-0.0535423415632911	-53.4482276845473	-80.0557830671899	118.927555517984	-83.312187802811	7.6434323258597	-27.988917579619	-138.587510999955	
361880000	-0.0369110813008042	-54.3014649212558	-84.4219548818562	100.477928790256	-85.3360116280853	-23.0401198610045	-28.0266485436968	-139.018731277618	
367878000	-0.0127454457245833	-55.1828983648621	-82.9947489124238	26.1478885494312	-84.3766072258177	17.221025353	-28.4333559026439	-139.844713950207	
373876000	0.00953587520584503	-56.0257526574727	-83.7745056982506	23.695043393513	-117.547932430663	-154.632909246902	-28.9109297236176	-140.104631083546	
379874000	0.0310270210091609	-56.851281879391	-77.6335321680939	-12.0698935137468	-88.8945349897642	162.93478000843	-29.437897541255	-140.008135953696	
385872000	0.0491937770452585	-57.6727367688279	-82.5644329765589	-22.1552344924365	-78.7190667686125	-137.098899745789	-30.0399043569924	-140.464340234205	
391870000	0.0633622225711804	-58.4593625477068	-73.6267325863804	-150.304544238851	-86.8569958143156	101.713408416362	-30.7101101377398	-141.930608789095	
397868000	0.0694666328574551	-59.2668026837391	-80.295534139432	-100.116785478884	-80.0105400194913	-123.429384251848	-31.6702714353657	-145.820659914299	
403866000	0.0701996875015841	-60.0843277823225	-87.8735548780048	6.51558875176172	-89.5300180376162	31.5550474177649	-32.2603855899915	-151.652343262487	
409864000	0.0640342616427937	-60.8990779672141	-84.6719617960093	-170.518037482919	-100.543441049016	135.562075006384	-33.2474615238504	-159.894439182399	
415862000	0.0553131963917271	-61.7302970768486	-80.8918081212898	-107.038637862195	-88.6560896418121	-33.0043787265156	-34.2349102296757	-172.021207962606	
421860000	0.0426716433142033	-62.5465877398522	-81.1984897849097	-88.8729454594478	-79.289345173312	126.846726630599	-34.7900846614232	172.736904883729	
427858000	0.02835743281997	-63.416991961476	-76.6633918023893	179.389978693695	-92.8060684305472	-139.32095079731	-34.592657080715	154.994039967205	
433856000	0.00773111993788636	-64.3069453325866	-81.5180197516252	20.8562654976989	-77.2520368046687	-36.0754223398236	-33.6467103052847	142.140954389065	
439854000	-0.00835606585751687	-65.2284624985457	-90.4143144434895	-176.241564304427	-80.0197709487887	118.444190723928	-32.5319886641347	132.470276654845	
445852000	-0.0254227580734359	-66.1434911565361	-91.2738028243058	176.349941974835	-83.1537345583924	-154.622233973323	-31.4037211815862	125.366668661133	
451850000	-0.0414547542562825	-67.0936094376795	-83.9759449162026	-142.408544815171	-82.1514677141852	159.422772462661	-30.364472790364	120.262086888853	
457848000	-0.0523788052277905	-68.0683236194475	-105.076661173357	-161.71202903843	-82.1657070767306	15.8305513939365	-29.5800745602906	116.942144554246	
463846000	-0.064843129815975	-69.0528806051385	-91.3630444563652	-7.9385544814557	-75.964085436677	-55.7044884291405	-28.9778181247896	113.7241426915	
469844000	-0.0654701311450255	-70.0359381044179	-78.990345400755	-59.1024584568653	-78.1995093928453	-126.402331899385	-28.5808221614281	111.627000681828	
475842000	-0.0672756141134387	-71.0592452155821	-84.0154293501015	175.115053710807	-84.7937942151293	-7.84636088657344	-28.1987856131958	110.2452550068	
481840000	-0.0580473732424231	-72.0354124271592	-77.6922094468081	8.52218642596149	-83.024696111106	-137.748886498588	-27.9570979723471	108.114077816847	
487838000	-0.0516680761181891	-73.0324773822553	-84.1257710655305	84.0223490908887	-80.4320536000153	-45.2363108666862	-28.0196915904919	106.437213017106	
493836000	-0.0394701332389389	-74.0040478413445	-87.0250727058955	-174.129931505369	-74.4019786691107	-101.714492043945	-28.0159537039673	104.796918812264	
499834000	-0.0243985533723165	-74.9506347415493	-79.9918110214544	-131.826608730411	-82.6445723266867	28.9971499196409	-27.9929511999936	102.464277702755	
505832000	-0.00895095253299768	-75.8641439907601	-81.7494953067708	-135.174738991972	-84.7346516856693	-106.112578733156	-28.0442422275024	99.2069691014718	
511830000	0.00448779629587277	-76.7815847924536	-85.3114004909978	-1.4446566629888	-81.407648220778	152.068340511244	-28.0652386643508	95.9762649262362	
517828000	0.0156270281174337	-77.6945976816356	-78.3903490046548	-72.8429660266167	-94.5063758224192	31.3326449252392	-27.9894638535222	92.3290941014838	
523826000	0.0234206257485924	-78.561197021218	-85.6367875263263	-85.6711310247008	-75.3803383372607	117.760045462357	-27.7122801327151	89.4678125868092	
529824000	0.0260629583784453	-79.4143849665356	-84.6119502110899	170.607367848405	-82.0191101733763	-174.661487999372	-27.1902650322994	85.9844068500863	
535822000	0.0222876389484306	-80.2738796684145	-96.8690910758964	96.2885784275042	-76.6470908812643	43.0296514008184	-26.5372881166441	81.312133545237	
541820000	0.0167762742170868	-81.1003958390609	-76.6757939200482	-177.786482881515	-87.2139609686706	130.005485498485	-25.9503014820785	75.5051784579884	
547818000	0.007044764225079	-81.9468727072758	-88.6956668454756	125.331767370036	-74.5534525684323	41.1447978249298	-25.6241560934254	69.9347475581667	
553816000	-0.00511842198390009	-82.7637816924704	-82.5552178892268	66.2017676643661	-75.8209680159407	25.3948336168855	-25.4815676056947	66.4125857366925	
559814000	-0.0229938833285966	-83.6269618012524	-100.472185351327	173.47965345986	-81.6236968091239	114.257029193173	-25.3713405481065	64.403916653712	
565812000	-0.033441654366103	-84.47528917384	-79.408389928952	-35.3515302526226	-79.9119493615015	-163.872648954929	-25.1802609975956	64.2802149021781	
571810000	-0.0460871895882272	-85.3437495191793	-80.1180557590271	162.898010837707	-76.3511347981519	-80.8297085257393	-24.928221271704	64.5429135322052	
577808000	-0.0583399400161978	-86.2343165777233	-79.2133492016699	-96.6347998616487	-80.2441925703656	75.4384866968919	-24.6231610869771	65.2147674770361	
583806000	-0.0647519410650561	-87.1231669623216	-75.1639998373121	-152.181710564779	-85.0575593325239	-106.538976096996	-24.2204974904253	65.6663575225263	
589804000	-0.0668172685659067	-88.0326321631173	-85.7168210900761	150.58097442632	-73.5105767360995	-64.2799305815189	-23.8649953777437	65.9698131187901	
595802000	-0.0680406801323673	-88.908956631619	-75.5332932765839	-177.485293846499	-78.1358620874995	139.044081118224	-23.5052166248964	65.8665731228691	
601800000	-0.0651036916640959	-89.8562696003124	-77.9717228485558	42.5340077776662	-82.6358124531401	109.136115538148	-23.1790418400404	65.1610924160328	
607798000	-0.0547792774444188	-90.7812272709109	-82.1476482517145	-78.7769465514216	-76.1832072790324	76.8537800285487	-22.9326404139588	64.1937818895195	
613796000	-0.0442979980555586	-91.6780498512221	-87.1385481135441	61.3518711603977	-79.7900853766101	150.367571664918	-22.6397659918374	62.4482263284964	
619794000	-0.0322998877256769	-92.609647713788	-77.4092779609875	61.1715090237604	-73.5723306786666	-162.223604459798	-22.4077313854779	60.3738319346969	
625792000	-0.0166777829921476	-93.5462629642265	-80.4558200736579	-69.9513054607836	-87.0620152563317	173.69330645471	-22.1617739054549	58.0591638785979	
631790000	-0.0039915639281569	-94.4294720461283	-83.7272734366164	-107.803852438428	-75.795579027102	38.9127694513181	-21.9279801149817	55.1876335896465	
637788000	0.0121166136565887	-95.3341242157105	-85.3159738791767	-6.34113147607797	-76.6194642542052	-128.059474851816	-21.6994087373504	52.4330543597944	
643786000	0.0238625741757346	-96.2480903702587	-74.8258751425055	164.07396180345	-82.6915822828918	-3.95842612339987	-21.4739923242623	49.355664609442	
649784000	0.0349496317025866	-97.1516426198653	-88.2896270042602	-158.839325233154	-81.820170542768	-11.8114028588201	-21.1711180887799	46.2912141827419	
655782000	0.0341675736258097	-98.022301896733	-71.1870120212636	117.824094002512	-84.445370452182	23.9836564254246	-20.8770774663286	43.6175784365815	
661780000	0.0358521706051968	-98.915495183998	-80.4880028114384	-84.6867916355979	-74.9201787094191	-57.6556340305627	-20.570837511089	41.0383370669204	
667778000	0.0256010354926877	-99.7832916768693	-81.4702505295012	4.8657671555477	-80.9552705798394	157.602624680542	-20.269084017759	38.536893171851	
673776000	0.0129263628302391	-100.71845383109	-78.7257914650739	176.778417071526	-73.9651580902146	-43.2089416000984	-19.9793443257415	36.4850352261537	
679774000	-0.00381328688887499	-101.600080730871	-73.6333853360532	-145.738278592742	-89.4045413579242	-175.523370292044	-19.6847052956996	34.8229486220409	
685772000	-0.0265227254797269	-102.496947082285	-83.1888152416799	-134.423832963823	-88.151314753042	51.5202279933886	-19.4250726326972	33.1441490695219	
691770000	-0.0465514129938357	-103.43981214208	-89.5145610062683	8.78505542853212	-88.3297472913763	73.7071674305436	-19.2220347384619	31.804800808922	
697768000	-0.0663656492392218	-104.377992737038	-80.0357758771224	92.7679084001509	-76.3602808980987	87.7256947916908	-19.0019499845053	30.7521616751025	
703766000	-0.0874908595884915	-105.342792783705	-77.4543924629412	-139.462249383476	-74.3673663268861	110.988816360841	-18.854052993387	29.4991160163724	
709764000	-0.0992958950504872	-106.291969638071	-77.9447834247223	172.450327669266	-73.885410728383	82.0153039954913	-18.7373022907998	28.340788816121	
715762000	-0.113218754325047	-107.212051012511	-89.002741538844	-7.97742686164886	-75.3419801227333	-139.801555740218	-18.6481454943547	26.9937216179404	
721760000	-0.116211502348744	-108.202904816701	-81.1269194678751	121.293480421858	-74.3381912587388	127.247286236704	-18.6223228739308	25.6006470624712	
727758000	-0.112578303679433	-109.135556119887	-98.2173089276405	150.544146312369	-75.29687435115	70.9596752468534	-18.6223712244557	24.0896910944099	
733756000	-0.105733028820491	-110.062293873656	-77.8599997787052	-125.786923465862	-74.8638557075663	122.028844743946	-18.6169759780068	22.2219350598398	
739754000	-0.0960191242049489	-110.950647224983	-82.8084115435677	167.577322881475	-86.0765548277171	35.1619588916847	-18.6658813653698	20.0607610406792	
745752000	-0.0776301042252272	-111.871873357738	-78.2411291855989	-150.517501554396	-84.1506067513338	164.455244373682	-18.715412333296	17.6938584342743	
751750000	-0.0618705570139693	-112.752711931166	-74.4045539010278	-21.9688300543923	-72.4833763699436	-70.1141107870687	-18.7784400733177	15.0934197090115	
757748000	-0.0358265436665668	-113.604069667915	-81.3667511435888	31.4446886215992	-73.1287741475532	-166.529007282239	-18.7970779111213	12.5104042404221	
