!Agilent N9923A: A.05.17
!Date: Sunday, 01 January 2006 12:21:48
!Model: N9923A
!Serial: MY50371189
!CHECKSUM:0438568019
!Correction: S11(ON U)S21(ON U)S12(ON U)S22(ON U)
!S2P File: Measurements:S11,S21,S12,S22:
# Hz S DB R 50
500000000	-0.593716777676582	-84.6506620381928	-7.03025033162278	34.1059000161268	-6.44276740039166	37.0911591752171	-1.30595339884037	-28.4900095933326	
501000000	-1.00223211567909	-89.8360160742365	-7.0870170851945	30.6532432885481	-7.21751011933058	30.3922655534237	-1.3563246223468	-26.4795908438953	
502000000	-0.973999841244719	-85.4235018375013	-7.02134867383907	34.2959849243532	-6.90483433209407	34.7032671056493	-1.47782071678358	-29.9314517418466	
503000000	-1.07105620912494	-85.7142594966619	-7.27424950877609	30.8333468442042	-7.7165449704648	35.6252256921709	-1.42457504740738	-28.9830659955228	
504000000	-1.13232048286981	-86.1789378264516	-7.0303398734419	32.9873171780112	-6.76904801250054	34.0499725253272	-1.54464315850438	-30.9346931645645	
505000000	-1.16728461460263	-87.6408912355572	-6.6873704632248	25.7545754488341	-7.02126428732066	28.6367896716639	-1.47934352066204	-33.6102570534676	
506000000	-1.19294802687066	-88.7824050074999	-7.39336958958849	30.1936033070827	-6.73354872328465	33.5162304596309	-1.29235329419638	-32.0758384254985	
507000000	-1.14496274364954	-85.7535657578285	-6.70898291110168	31.8987848790176	-6.42248919468329	27.707731178948	-1.55501213837956	-36.1596609633695	
508000000	-0.870554847195343	-85.5313923345211	-6.54698196464475	27.7341810303169	-5.80282270136782	29.0474459597577	-1.36208211460469	-37.0672202740189	
509000000	-1.64312501180101	-88.2592387641978	-6.09366136485139	27.9224083846958	-6.02974362649571	27.93215599464	-1.42554830940456	-39.9976891266307	
510000000	-1.3183459657781	-88.5573514966277	-6.20775769752953	25.4955403713107	-7.01329165097925	23.4714238506476	-1.36536319464422	-40.3847253434192	
511000000	-0.554896273009107	-90.8446305042983	-5.94405881380231	28.6320341848206	-5.46094531175023	27.3922890955015	-1.34861299699197	-41.4600694844538	
512000000	-1.30709360665695	-90.0250643611293	-6.85311542162538	24.3853132214614	-6.31131065596975	26.3677889103281	-1.35369847731412	-42.9513102501273	
513000000	-1.54246314882377	-90.5728031150907	-6.21628017662602	27.4557922435611	-6.61909965924955	23.1764354715672	-1.17316208255298	-42.1889177253141	
514000000	-1.15386905669944	-86.2458979606123	-6.2827908293443	25.0201572014675	-6.09139511741662	24.9132589851273	-1.25157522583236	-42.7832249391532	
515000000	-0.717745249359887	-89.360545562197	-6.35217480164006	24.7076353487181	-5.93466778941633	25.5463430858065	-1.16137383452879	-43.6312713270569	
516000000	-1.20090938316037	-87.8582281013184	-5.98312598925275	21.9855061340337	-5.82067055675174	22.455707777392	-1.47221706151005	-47.4673431805446	
517000000	-1.31902593764003	-90.1826811135815	-5.9267000609376	22.6622814131528	-6.65342524558306	18.4821365238754	-1.49368404002566	-47.4906876621556	
518000000	-0.90194426066084	-88.4300392335446	-6.0444859159669	19.6799912705512	-5.7298255406562	22.8914969382147	-1.41034379342766	-48.3733799009787	
519000000	-0.883308487698852	-90.8544600130162	-6.40974658524269	23.1801411575538	-5.79682948566217	22.7995814549747	-1.87187461876939	-48.5838429725606	
520000000	-0.97130158190297	-87.1375064479487	-5.58183892329542	23.8969509107143	-5.3702971682623	25.1321136004653	-1.31419988285241	-51.8588830615907	
521000000	-1.31365002477256	-91.3296464900017	-5.53822156960538	22.5398002905162	-5.91031648091346	18.2965154305693	-1.22097105643497	-50.9266475199753	
522000000	-1.27763557451971	-91.3114198407335	-5.87020637855183	22.5176881368509	-5.72363508242303	19.7248281202786	-1.61190988555577	-50.368688824491	
523000000	-1.69743705220246	-93.4981379311233	-5.47444487090777	16.6184556208193	-5.60789790012211	19.5691845291761	-0.868956382962907	-53.6584928116733	
524000000	-1.34829092722223	-90.1942502976382	-5.9226018265631	18.1722563683815	-5.74774033758888	17.9057843619	-1.65527146809957	-51.7051441460076	
525000000	-1.51190634139614	-95.3901945181314	-6.04971203045169	14.4662483697616	-5.3904031341221	15.2881041919657	-1.71067862724537	-55.2251901624797	
526000000	-1.64540177884177	-90.4261513561201	-5.52819984124701	17.1529622534134	-5.84808961636449	19.1229212007657	-1.34886050223788	-57.0502596476649	
527000000	-1.1527517342807	-92.2256462855489	-5.74380422590001	14.9995539948859	-5.16347005973444	16.9678221724763	-1.43852175297182	-59.7224994526374	
528000000	-1.59063380527749	-94.8368377929249	-5.27602714827616	14.4259046721279	-4.82027666264863	12.4203202575856	-1.69972740926561	-57.8629193242299	
529000000	-1.59431978204771	-94.9667429822742	-5.28750867427091	15.7839053978849	-5.34282894099063	12.6414379329206	-0.745782968724992	-57.7717230978501	
530000000	-1.41145483380023	-94.4627661905584	-4.8972818068744	13.4324785436069	-5.37207358635847	11.7936591619027	-1.56132843361777	-61.0330977333671	
531000000	-1.54235126041239	-97.5484436843153	-5.05697267351377	11.9407097462428	-5.28303591111494	11.9856660096672	-1.56788520923328	-60.372930534766	
532000000	-1.29984217047084	-96.4025647281236	-5.11534454441337	13.5508350689034	-4.86407492574284	10.8584918904835	-1.5326744360049	-60.0422736127381	
533000000	-1.32277140236817	-94.8326418940719	-4.8639893265633	10.532434872333	-5.25175248916043	12.1445157261549	-1.96322333964872	-61.9860270937082	
534000000	-1.78150123656755	-92.6518123385295	-5.10805208919124	13.8556306873623	-5.49904951000853	12.9046127829614	-1.81681936837428	-61.7300045758485	
535000000	-1.4153718507812	-95.6277740662625	-4.84076718449042	10.5038081111082	-4.87602250395325	12.187986719425	-1.87126903235867	-63.7985424151576	
536000000	-1.96440509278224	-93.3444166689796	-4.71607182454947	9.83463352674476	-4.76459205011721	6.57686368550095	-1.6961678669724	-67.0556223327718	
537000000	-1.61829584595904	-89.3769706107361	-5.23602694392974	11.385810217675	-4.88096904088529	8.02928759736939	-2.20275685986741	-68.4740259397708	
538000000	-1.88568915220377	-97.368498503578	-4.93384594876908	7.84832563824984	-4.7284043494722	11.325881767768	-1.58163644433809	-65.0240636124593	
539000000	-1.86096832612603	-96.2780997165428	-4.46925916160263	7.44944802301221	-4.99824235548735	10.2554737805354	-1.57242031870221	-67.4044207395339	
540000000	-1.44315142234554	-99.320538820036	-4.95127445597458	7.22614607667976	-4.28205469393963	6.63134334040568	-1.66654164681455	-66.9185901112729	
541000000	-2.01950197694398	-94.9206866024207	-4.78720994141619	5.72939214389962	-5.14935296854572	5.79381201476014	-1.69170649091801	-68.9635717924029	
542000000	-1.38187016684495	-97.8472166252044	-4.77032234269052	9.64910491739803	-4.37333383099118	7.45350382128746	-1.57651728688356	-69.3620012893445	
543000000	-2.25453339276613	-98.8034133536359	-5.02142932672245	3.83764579372505	-4.99477385191237	4.93447874117461	-1.97025913376572	-70.6053733584196	
544000000	-1.56742392594632	-97.6263996130099	-4.26242960193643	6.83226375316419	-4.00230464581893	7.23838079549545	-2.09448648550949	-71.0206738795465	
545000000	-1.46567729164515	-97.6299239412595	-4.56589115060076	8.25825965602092	-4.69831953945914	4.18337543490318	-2.15372612503601	-70.1563460785945	
546000000	-2.10226443663282	-98.4402753855633	-5.10670021382158	2.8495661085465	-4.26394617259928	1.88852245693597	-2.30153981138158	-72.0449128816288	
547000000	-1.73892645723231	-97.602409534262	-4.94031461886563	5.47792618548501	-4.31604207880098	6.78065965098847	-2.24183401294467	-69.4783484039278	
548000000	-2.19287832510219	-98.7644876449823	-4.530728519937	5.01260957004774	-4.04557268726203	5.71402663116671	-1.72762614404171	-71.4801586340787	
549000000	-2.20671948733958	-100.136593310862	-4.30813196342642	3.06322190927917	-4.49228481011685	2.26686181772528	-2.34060031018598	-73.7533386728363	
550000000	-1.86425970003343	-102.863093046852	-4.37825680133023	3.39703194605799	-4.87045242547268	2.64142253543224	-2.16615856888537	-71.1873127789881	
551000000	-1.26745949271843	-101.560747993837	-4.35121615769306	1.97371361117214	-4.03809603175232	0.996059035526141	-2.27866680554069	-74.1550412052217	
552000000	-2.25210063859961	-104.248772612676	-4.18881458721787	2.2160678360159	-4.20781150181016	0.527536439916869	-1.76570650207245	-75.3883166205892	
553000000	-1.99795706162466	-102.164960279939	-4.60065441381157	-1.4022534355088	-5.02381566905207	0.150434028523602	-2.6660463118061	-74.4728224956204	
554000000	-1.93035263634529	-99.0937706004079	-3.90126525254421	1.69308148823097	-4.03202499556389	0.562588748400595	-2.17405863257476	-75.1753356633789	
555000000	-2.20302073065466	-104.5718141723	-4.05182626630406	1.93076857052408	-4.38787430552551	-0.0353577526196486	-2.08664732369219	-76.7891384863394	
556000000	-1.36252309280736	-103.829306772563	-4.31317352352318	-0.242190407707133	-4.25440153442314	-2.34726341736617	-2.64392331560281	-73.2546100740954	
557000000	-1.58755945373545	-107.705064919245	-4.25561751957538	0.477297260393338	-4.36137691962089	-3.59509879053948	-2.10912023702025	-76.1604599611348	
558000000	-1.68743106675758	-101.004457688917	-3.80298283003991	-4.79216418818436	-3.94155450421543	-1.14996921959071	-2.46916869350886	-82.5927133944088	
559000000	-2.25693318660471	-104.097368134355	-4.21077156629359	-4.26994342737956	-4.47149004962432	-1.32711071177888	-2.4005741694749	-81.4253623579942	
560000000	-2.48691827633874	-107.910186211601	-4.51738622625081	-5.89977948795782	-4.67054791603983	-3.1713093813574	-2.32731970716981	-75.3473821584634	
561000000	-2.62733236311985	-105.603676892584	-3.89718872624155	-2.68914092063	-4.24692971279809	-1.35625110544083	-2.24312802777739	-78.6018505800039	
562000000	-2.53749445315835	-100.499331977314	-4.25498611315557	-0.587326467276519	-4.09132709444977	-4.88679743301346	-2.00115264624972	-83.8410350066693	
563000000	-2.29226787850515	-109.386284373171	-4.26903423259902	-4.1268487400151	-3.71936458522859	-3.36151601641442	-2.39850689121388	-79.5198256609865	
564000000	-2.4350074726419	-104.330529240466	-4.17958369028194	-2.08258576255391	-3.71612198322893	-7.31433558812516	-2.46959872410822	-83.5732575954932	
565000000	-2.6957604629835	-106.16237688238	-3.35887957782721	-6.19491417279362	-3.54883039112259	-5.81851457667905	-1.95303600507852	-86.1455851484431	
566000000	-2.02962130069794	-103.750699555331	-3.54704724055829	-4.80732733955642	-4.13918773153534	-3.08090985519829	-2.50940664954106	-85.5422411984985	
567000000	-2.9671675866091	-103.106236008787	-3.88177727155042	-1.90199127323359	-3.70169075054989	-2.87896290387436	-2.38573708132515	-82.2849417009599	
568000000	-2.32315888474846	-106.403438137976	-3.60404036493789	-3.80232277678032	-3.79200927845818	-6.6381492379629	-2.30642152189479	-85.3654408163005	
569000000	-1.79929290975217	-109.964329440224	-3.50700465257628	-9.87165796608843	-3.76327358194278	-6.81129380755107	-3.00983079977032	-84.3526963143276	
570000000	-3.08270185392555	-108.900467735691	-3.53111470325682	-6.52468353310242	-3.14066153527172	-3.44738340619474	-1.84409192271949	-84.9529943008526	
571000000	-2.99544016610809	-107.846167599269	-3.57719090410489	-6.74707495062182	-3.41385163356753	-8.78808467343137	-1.9402707877187	-87.7080125952122	
572000000	-3.20424603149336	-108.812624160785	-3.53751541159215	-8.08347885280094	-4.12529192027406	-8.82860218118743	-3.10932552624068	-85.404086003248	
573000000	-2.62933111035566	-107.1463610146	-3.80723928322843	-10.1581134120062	-3.60718235820733	-7.6997513405905	-2.80142986842301	-88.5610363514461	
574000000	-2.70522705979099	-109.463724844577	-3.14396541943238	-7.49800700698874	-2.98938315748188	-10.6059169800077	-2.67983620844811	-89.9076273286389	
575000000	-2.95046285902944	-106.055030332645	-3.44798245666895	-8.22634786044846	-2.97428872032163	-8.55308353423714	-2.38360362244143	-92.3163208823702	
576000000	-2.85996822186834	-108.205897876808	-3.2742372106928	-14.2290061997127	-2.71879891635705	-12.3024637355158	-2.63844264309622	-89.4746875347964	
577000000	-2.73421904017592	-109.78515683388	-3.06838419704031	-12.1961479257098	-3.06786371555129	-12.7306654742882	-3.06115736759945	-91.0066626005771	
578000000	-2.99429117302668	-114.582890282469	-3.2783598352583	-14.6560161761906	-3.53984095526572	-12.7814007097173	-2.76401045037343	-92.5563319129967	
579000000	-2.65804541821512	-107.131857337044	-3.35657631619397	-11.9649430139361	-3.18412422709776	-8.54911424306585	-3.85789681287287	-92.0612778451979	
580000000	-2.69826467800879	-107.819084756257	-3.51157895279976	-11.9598734720641	-3.2887079749577	-11.4230833271221	-3.13348624829108	-95.5073210598542	
581000000	-3.60042962446218	-109.183275076707	-3.32522772223033	-13.0383808868833	-2.84699463746093	-13.5428151173046	-2.80596684284021	-98.4825758133506	
582000000	-3.29047936402398	-110.985156697343	-3.95516411470602	-16.1795756804204	-3.24242207312879	-12.6224276060826	-2.85399462405939	-94.4339843083452	
583000000	-2.56694034223175	-113.626541672112	-3.25422810639427	-12.7086510814068	-2.93831927136156	-16.9867430547915	-3.65003955363139	-97.6740894957845	
584000000	-2.91517399257612	-112.975933834731	-3.14822311742971	-14.7000504388801	-3.15941070538236	-16.0109843647808	-3.28820758619532	-94.9776733212741	
585000000	-3.3848954126397	-113.86177094943	-3.39991628584231	-14.7950964198297	-2.98353574235771	-14.6276697281278	-3.49770189276947	-95.1480132573492	
586000000	-2.76280075558017	-114.696455032776	-2.91079216156559	-15.0000706945769	-3.13021584689052	-16.3926818821177	-3.14627865396445	-93.857645460961	
587000000	-3.7589376529348	-115.230727822323	-3.13806705019777	-15.2078104731483	-2.55221487069814	-13.7002281225048	-3.24690911932037	-93.4942062489225	
588000000	-3.60030360491335	-116.321513796236	-2.82852597841608	-14.245456127246	-3.35249264158485	-17.2943477383843	-3.30352723228625	-93.6432726655581	
589000000	-2.64157692531469	-117.785491015741	-3.01170112878571	-16.5160236335939	-2.72588570715643	-20.5223684056783	-3.65773269128258	-96.5229161763498	
590000000	-3.76422965469213	-122.710940696145	-2.67074188959133	-21.3596839506171	-2.73781373383596	-17.076800143284	-3.10499261322309	-96.3999190026809	
591000000	-3.74029298015687	-111.426238647189	-2.7366575135712	-13.7249674432862	-2.3608319567009	-17.1978882869663	-3.36491201889509	-103.022444503175	
592000000	-3.03245814411477	-116.148677904558	-3.3854815126417	-17.3082162654222	-3.15929864854823	-15.9740239947964	-4.70316414504014	-94.1821095854906	
593000000	-3.11146523909945	-118.225349673623	-2.35941835715291	-22.7065815189628	-2.78824347876648	-23.7504062275442	-3.11682931562706	-107.188380492859	
594000000	-2.99674786985218	-116.106842571265	-2.53500797802515	-19.7047567860388	-2.19946733232405	-20.5277929455479	-3.81047090475532	-104.574120163747	
595000000	-3.41232249696911	-120.445781165331	-2.57640695903899	-21.3934802426619	-2.4728095729517	-19.7453070093995	-4.31993574806836	-102.327077208811	
596000000	-3.64197246355342	-116.696900967552	-2.39098328017355	-20.6696529676618	-2.37202834784207	-18.1501823122331	-3.53181030338564	-103.553944156624	
597000000	-3.53068408838789	-119.884147845694	-2.72149157428438	-21.7487384351316	-2.70996268233223	-20.8369008512759	-3.86225228675342	-104.203333908886	
598000000	-4.381768065851	-116.087272137669	-2.39007306812379	-19.5169564715813	-2.45734041230864	-21.7069714328981	-3.06163620605718	-106.994165985844	
599000000	-4.25390485572646	-118.98953401217	-1.9952962761804	-21.5476811234623	-2.18151846281375	-23.6031885328291	-3.28193840893429	-108.033514043309	
600000000	-3.84327871544637	-123.051693929648	-2.27030662109415	-20.8350464267534	-2.26438668772492	-20.0697995075717	-3.82101851870826	-102.724143209197	
601000000	-4.06405173295895	-125.284894105356	-2.37733903810358	-19.9472638392489	-2.05067111560062	-23.2228203169842	-3.59402838199607	-103.333801850559	
602000000	-3.68589025514412	-119.315993462392	-1.97792603600109	-25.6535665325691	-2.08770641711895	-24.7139565775638	-3.87660379926968	-108.173884530135	
603000000	-3.98895320854352	-123.748356105316	-2.24322925871741	-23.8795031790129	-2.93879499117409	-25.2993343420959	-3.78065237868472	-108.829714799178	
604000000	-4.56460023846343	-122.797887297731	-2.20449297806338	-25.6474479485654	-1.93541971129624	-20.1296095013182	-4.02899256757093	-106.219423582365	
605000000	-4.53768313686076	-121.674448751435	-2.42421436654448	-23.7283554236311	-2.07135859671347	-21.3045740814701	-3.67819351357167	-104.83334751847	
606000000	-3.78693743598856	-119.135569291248	-2.45407660845082	-25.3992077956258	-2.69116799778106	-20.7469948744583	-4.56325735179585	-114.777787117503	
607000000	-3.97787715473543	-124.442367629776	-2.08678259519278	-26.2681905204267	-2.55864727344475	-26.5874370975773	-4.31203614272771	-110.409501119259	
608000000	-3.90505118515495	-124.302883291323	-2.2133958771831	-28.4689245311939	-2.42615424419505	-25.3784641719719	-4.99550737482909	-111.131679763103	
609000000	-3.57311561009119	-123.433928824751	-2.00994169902769	-27.4182602173518	-1.86906333204697	-24.6786674176035	-4.71403371479614	-113.520876674166	
610000000	-4.77838369908324	-123.611541462659	-2.37397358381544	-27.5548735454452	-2.10191844833018	-24.5715835723376	-4.18326698360073	-108.203834723444	
611000000	-4.23687005438376	-131.265325425284	-1.90519919464845	-25.9312907087168	-1.56106770539775	-27.0961162725271	-3.96057373243141	-106.099831215774	
612000000	-5.0849585481227	-126.234758333587	-1.97565288006727	-27.70937664601	-1.73426546500709	-31.5049127776233	-3.71187746721076	-116.146505575022	
613000000	-4.8617744661325	-131.66888829606	-2.13225691034799	-28.1214087893101	-2.32366086534697	-28.3529932541556	-4.36333382652544	-108.683852972241	
614000000	-4.45456449348599	-128.794926378664	-2.39260998189797	-29.1360252866408	-2.22324916007281	-29.9070793455923	-4.63753107405038	-112.642419631824	
615000000	-4.65901714436061	-121.548278499699	-1.92259930959797	-29.1335101368708	-1.83842956821233	-30.2758315923443	-4.87453455024719	-117.106589623297	
616000000	-4.30600517653065	-126.409456701708	-2.01985868341865	-30.2926773930127	-1.80376979279125	-30.381702659418	-4.88876908428436	-110.081058826492	
617000000	-5.42212178054015	-133.396921770482	-2.01613561354154	-31.9860629915593	-2.54164782450448	-31.8131003794652	-4.52676552217666	-117.919865316438	
618000000	-4.25902443570497	-130.379926888705	-1.77862758574953	-30.5372513479348	-1.94679675044038	-26.4093931327609	-5.69756652784428	-114.527256390501	
619000000	-4.95110751080315	-126.641436833076	-2.03641752134749	-30.2653898664887	-1.9988244224109	-31.3355849397606	-5.32730660809638	-119.76881106923	
620000000	-4.60932919216331	-128.793138246866	-1.87878899443103	-32.9409160004382	-1.82461686879346	-32.615011051261	-4.13768615993464	-118.603820036732	
621000000	-5.08103176254595	-128.08939210772	-1.53681603591342	-34.8885256905549	-1.80230015815573	-29.6804054129209	-5.14288371267167	-114.895462389484	
622000000	-5.26708560959502	-134.163968609621	-2.06027970574393	-36.8455070637568	-1.51716782274841	-36.3346942675655	-4.6243097936193	-115.90756501184	
623000000	-5.33961531994305	-138.237929970767	-1.29286385243019	-33.6350966761371	-2.17376692849966	-33.7561189467672	-5.16627375844313	-117.926623338524	
624000000	-4.67287329569507	-128.303515960014	-1.64104463204318	-38.0622768251832	-1.57892843656708	-37.8997656332007	-4.55183742106161	-124.207753285837	
625000000	-5.64175200725402	-129.422600329914	-1.50377374849368	-35.3187537807236	-1.64876431296297	-33.4591731136341	-4.8922479933916	-119.544712240034	
626000000	-5.37298438326733	-131.472322403531	-1.77599250919446	-32.8170741659369	-1.43220905205257	-35.4947389738242	-5.28339720638064	-117.229654074691	
