!Agilent N9923A: A.05.17
!Date: Sunday, 01 January 2006 12:59:41
!Model: N9923A
!Serial: MY50371189
!CHECKSUM:1755678378
!Correction: S11(OFF)S21(ON U)S12(OFF)S22(OFF)
!S2P File: Measurements:S11,S21,S12,S22:
# Hz S DB R 50
2000000	-42.3588216280092	-0.061653285449668	-0.0536352445391174	-4.12759345725193	-0.0441096721534051	-4.22042259284506	-42.8711975146215	-8.57405331377429	
7998000	-41.401168744395	8.50462344427248	-0.0604333742582107	-15.9487196647843	-0.0479675290639135	-16.013264986138	-41.8174017642941	5.3090392310846	
13996000	-40.252109701247	8.26250036088861	-0.0671605027536365	-27.6799313467623	-0.0590283364196727	-27.7562670437563	-41.7438698895813	9.81908486952149	
19994000	-40.4104693716426	5.84586262908693	-0.0696162785527739	-39.4098043889967	-0.0621825994015255	-39.5058141957146	-42.6779776460378	15.4710246232714	
25992000	-41.7741078465763	3.74873074666173	-0.0726852162861194	-51.1577658944705	-0.0636109690900476	-51.2313469915793	-43.4537073687597	31.1110664818341	
31990000	-42.676983150769	-3.92710921236873	-0.0778464334037325	-62.8786746586973	-0.0683947117696323	-62.9667614908225	-43.5298122661376	40.3047924407654	
37988000	-44.7867393611255	-21.7758333303581	-0.0783436312420145	-74.5952614351762	-0.0710397194770857	-74.6889967610411	-44.3176159696484	43.7714537630539	
43986000	-45.6332805421474	-54.2277038622945	-0.0845723391780404	-86.3401893625094	-0.0768294871389554	-86.4062672320557	-45.9081284433873	44.3591502737127	
49984000	-44.046523144246	-89.5443434125028	-0.0890464924358026	-98.0514805298691	-0.0799480200433645	-98.1320928451442	-48.5096960640496	48.4942058925507	
55982000	-41.2803258888466	-118.102218965648	-0.0913236147647822	-109.786901046711	-0.0816549260481176	-109.858949829281	-53.2113044986154	68.1870684073668	
61980000	-38.7062278416731	-136.941301197057	-0.0951129665016724	-121.510890524798	-0.086152942373115	-121.578060698215	-53.1536152199297	140.742706660296	
67978000	-36.8739858761093	-151.895270979011	-0.0970531343117386	-133.237369083909	-0.0886560240599162	-133.318835838706	-47.6578193430931	151.490689415091	
73976000	-36.0228572960566	-165.513787864888	-0.100508588468654	-144.950106210827	-0.0911936651709972	-145.032305701049	-44.1940929974186	142.179676193106	
79974000	-36.0051070908029	178.247720768019	-0.0999526237546434	-156.674192093215	-0.0916634217332301	-156.752922189819	-42.4249872949474	123.312104184675	
85972000	-36.6340050908207	160.112439825883	-0.101188185273846	-168.389076584184	-0.0941897629828794	-168.457835778183	-41.1589066763657	97.1102857486431	
91970000	-38.0901839633	137.630991328904	-0.103366013747801	179.903859833522	-0.096066071334823	179.824056873497	-39.9006064304056	69.8187271689204	
97968000	-39.890010415282	108.239716149333	-0.104935254065573	168.178903645405	-0.0969608113023376	168.112139590831	-37.9800147756888	44.5893352569625	
103966000	-40.456932937189	69.8320158935024	-0.106350411948154	156.471494269457	-0.0991698190776113	156.392145637861	-36.3509990261742	24.2783860822632	
109964000	-39.2711753079289	35.8659906537644	-0.107137909000744	144.752991574029	-0.100211007019321	144.682821752862	-35.3005826613651	5.885454018666	
115962000	-37.8600549826767	11.0829012684606	-0.110502436997815	133.030830263396	-0.101327213350666	132.953384884568	-34.7040361287118	-8.76154936497722	
121960000	-36.9172049567361	-7.68539642967967	-0.111578589414537	121.315839979081	-0.104559228232002	121.244966092794	-34.9991257487835	-21.6142019480196	
127958000	-36.8948578019995	-21.7832542553866	-0.11178368475259	109.592542858784	-0.10603753739388	109.51384535249	-36.0680422280663	-29.7532719330501	
133956000	-37.6172668443211	-34.8145572614215	-0.115036997464206	97.8481157668579	-0.10761188208462	97.7868201530556	-38.4547690260432	-36.0754615741223	
139954000	-39.3324926914678	-51.0530501637911	-0.11630411508865	86.1207757407975	-0.107686468894335	86.039867502215	-42.4277922488299	-34.9342227892271	
145952000	-41.6805294113008	-73.0578030375473	-0.120526347500973	74.388884507554	-0.111792849826028	74.3193590775183	-47.6278840545214	-7.37755724866616	
151950000	-44.8113802260173	-112.774706305008	-0.122699582336511	62.6558790138096	-0.114080976289349	62.590940284441	-46.0002917834802	49.8655746574017	
157948000	-44.3216582573547	-164.313136548528	-0.125052074132946	50.9607315695213	-0.118315740555771	50.8615546707385	-41.8028634718009	65.8529360279575	
163946000	-40.7833331606879	165.674886781172	-0.126466279177192	39.2361251004906	-0.119108308853726	39.1633568700156	-38.9155882473362	68.0192050465247	
169944000	-38.1490758271017	149.162910082643	-0.127671247392694	27.5017434624178	-0.121548842597403	27.458947953871	-37.4948428301253	68.1000718356291	
175942000	-36.1426624275179	137.849430353292	-0.12991306941254	15.8107709473612	-0.123689197183782	15.7283530927455	-36.6226344499005	65.043149750306	
181940000	-35.1348910074174	127.604791119046	-0.133095463212878	4.09817847335873	-0.126583813057285	4.00638530917964	-36.0959054217248	62.5686624573922	
187938000	-34.4538942412415	116.451778980065	-0.136361134056444	-7.62391630449255	-0.127135680856207	-7.6942084541183	-35.8137867223723	56.9539331882265	
193936000	-34.477732010195	105.191055007883	-0.138079682873503	-19.3141727684086	-0.131738286730442	-19.3842968019209	-35.5642211498922	47.8697376631225	
199934000	-35.1811441544555	89.5262555795269	-0.143698541296203	-31.0670483778478	-0.133622207040865	-31.1176568117196	-35.3303801904464	37.0248081942976	
205932000	-36.3095806513832	67.6084962891142	-0.141570330885394	-42.7569536464449	-0.138130205815172	-42.8129070743868	-35.3295480353212	22.0594615183015	
211930000	-37.6343784836809	40.5473172329324	-0.14322603696328	-54.4885102113567	-0.137035572876804	-54.5326687556528	-35.005234647407	3.76248939233542	
217928000	-37.9269249339251	6.79310027687673	-0.145791232627594	-66.1485998316796	-0.138667771700676	-66.2494176244333	-34.7338599314959	-14.5936884546961	
223926000	-37.1014674065243	-26.2575744331903	-0.144572473491822	-77.7960496119304	-0.138165309965037	-77.9138354826395	-34.6252256853893	-33.4554681737402	
229924000	-35.9639804664243	-50.8058363845314	-0.144939841946759	-89.5672148547954	-0.137054414515935	-89.6449726072568	-34.4720649178706	-50.8047583299167	
235922000	-35.4431681610184	-69.9042851245886	-0.145345036885608	-101.277771757134	-0.13794098510777	-101.352610682872	-34.969977964136	-65.9907446803493	
241920000	-35.6565331854249	-87.3211482161923	-0.145669420273343	-112.990611824849	-0.139419397421273	-113.068142831556	-36.364658119291	-80.8257612892754	
247918000	-36.9512063293479	-104.553148028779	-0.147671638232364	-124.698430428199	-0.140557370311298	-124.779889259305	-39.363768821633	-94.9501544888784	
253916000	-39.4944056828303	-128.041299806626	-0.149326321702131	-136.429147516441	-0.142773659105227	-136.501243293402	-46.0740037921885	-114.623804833034	
259914000	-42.705010164475	-169.215115696767	-0.151983629925267	-148.145384010096	-0.143843524152207	-148.223266047158	-51.8389545938646	102.779869934953	
265912000	-41.9392081728841	131.416415304804	-0.155428579690642	-159.855697843668	-0.148272692270388	-159.939820039931	-40.25193173664	68.1116301474707	
271910000	-37.8258954059454	97.0146480586047	-0.156032575410751	-171.566848173284	-0.148636493271498	-171.640535750541	-35.5553137461201	54.6311254310821	
277908000	-34.805427361824	78.037728959528	-0.157370880496389	176.71470001706	-0.149365201670753	176.650793863707	-32.998519519059	44.7829919826964	
283906000	-32.8426471762547	66.463974423135	-0.157279122391867	165.014056723574	-0.149765142264208	164.949080158292	-31.5348926244458	34.8718949630545	
289904000	-31.7016980916473	56.556598876711	-0.157246334467126	153.298166343353	-0.149332065699559	153.230539909591	-30.7531175719083	26.4211380974772	
295902000	-31.2181711922753	48.1736937950873	-0.156102983721909	141.5943480888	-0.150692025015568	141.510320985039	-30.5158976198832	17.4353136974507	
301900000	-31.4528694372585	39.7376780925411	-0.156341416445134	129.867897909516	-0.150742131412952	129.806737823037	-30.9022762159728	9.41228055307692	
307898000	-32.2048613288094	31.0453323861374	-0.159543083236743	118.155246670088	-0.151084131823672	118.09286874946	-31.7876681881614	0.851601975807955	
313896000	-33.9429284102291	21.3887469033802	-0.162105856611059	106.450319930049	-0.154167578976199	106.376817322889	-33.1693817488161	-9.59009415142791	
319894000	-36.6233611732677	8.8631068494464	-0.163468215928704	94.7325254005396	-0.156721256659721	94.6702120826126	-35.2884473316855	-20.8355989636737	
325892000	-40.9916466991727	-14.5709044742267	-0.166814454289952	83.010895709077	-0.159224088722976	82.9435858107808	-37.9964724964927	-36.0508705033731	
331890000	-44.8648676762634	-76.1754091689419	-0.169204090198187	71.2897505707478	-0.161655025915657	71.2275611729992	-41.649295895782	-59.3161687104403	
337888000	-40.5985503409759	-133.913237680184	-0.16938856222901	59.5748779830636	-0.162975972639847	59.5134105025579	-45.3918237303693	-100.733610542786	
343886000	-36.8821330978427	-158.001705891217	-0.171495512987111	47.8467120858785	-0.166463965395824	47.7835440016834	-46.6001858809129	-149.535028451348	
349884000	-34.6957325225544	-173.338805671842	-0.172623272220614	36.1293514102155	-0.167237821678236	36.0551855862414	-45.2875458132185	162.020037300019	
355882000	-33.6046012888881	173.005570678746	-0.175338164611119	24.4054607752911	-0.169749892785542	24.3308105256589	-43.2555077563105	126.313748206911	
361880000	-33.479780334673	158.983614066305	-0.177792613301593	12.6990309441332	-0.171562476200807	12.6294607689202	-41.4431293088094	92.4732407217496	
367878000	-34.0761245047019	142.766776612775	-0.179534789482071	0.972302906295309	-0.174869064239527	0.920807660467714	-39.1440165370757	60.7720721858478	
373876000	-35.3421121450177	121.813186969062	-0.183642836026192	-10.7368648605514	-0.174541596696115	-10.7916252481224	-36.6452225617585	36.9489649183102	
379874000	-36.8510811859461	94.2423619021249	-0.184406419268775	-22.4411228739501	-0.178176086326449	-22.4988203069778	-34.5020540435605	18.4615510636503	
385872000	-37.2580127139236	61.8835391398393	-0.189038199966187	-34.1538277882923	-0.181425574690657	-34.1879778273294	-32.6680433925145	3.2425457426082	
391870000	-36.0055151479525	31.34180673046	-0.191748765401	-45.8506800562306	-0.184798755095626	-45.8947168648321	-31.3663250958288	-8.56903038690523	
397868000	-34.7570621689144	9.79495662332396	-0.193144805258435	-57.5534593404964	-0.186785528342794	-57.6040084477029	-30.6868144981988	-18.8857046970096	
403866000	-33.8265052121505	-5.39222987633174	-0.194550475505495	-69.2614546934772	-0.187091566859519	-69.3200935367878	-30.2816886298174	-28.0183459490703	
409864000	-33.4575052504179	-16.7387404701928	-0.194245657757707	-80.9719590154674	-0.187970985435521	-81.027431644392	-30.5151989030341	-36.822596594722	
415862000	-33.7991103984877	-26.6522103217123	-0.192810909213746	-92.6837611147292	-0.188319979042347	-92.7476487499195	-31.1915885334664	-44.7240997102653	
421860000	-34.7396682880355	-33.341386721188	-0.193361491480401	-104.40026065168	-0.187267259222526	-104.458674190733	-32.3631098793416	-52.7330794779624	
427858000	-36.816234694878	-40.0080098966379	-0.19416972736263	-116.104215019204	-0.187619413934897	-116.148933870091	-34.3581523021574	-62.3094593541601	
433856000	-40.8270008991286	-42.2565387826883	-0.195532607223859	-127.812705316873	-0.186434141618509	-127.86310142435	-37.628923008797	-72.9042651092063	
439854000	-51.007134310918	-31.6525560235075	-0.194867478337009	-139.534820971313	-0.187794852228234	-139.575857045998	-43.7437563737191	-95.5746108904763	
445852000	-47.1019664657828	97.4332233450001	-0.194118311519546	-151.245962801425	-0.186710525218462	-151.277802005086	-49.7214055014364	168.474004483256	
451850000	-38.7146573237431	100.193583656988	-0.198525383904542	-162.961583557761	-0.188585479790268	-162.987858196483	-41.1552955231764	109.269240666486	
457848000	-34.9080981650582	94.6025722392556	-0.197982292565845	-174.669899107195	-0.191282730399559	-174.697775501516	-36.4715179216758	90.6719364343457	
463846000	-32.4207161278064	85.6472698076831	-0.201210298361367	173.613149127803	-0.19421047750716	173.597472852764	-33.9685660991891	75.0753747116247	
469844000	-31.0065906799973	76.3779555275357	-0.204307801550106	161.919036104211	-0.198080325944554	161.890950161598	-32.3555126885274	60.6695352854723	
475842000	-30.3345187907321	66.3953564309079	-0.205982060169538	150.22132900055	-0.200368663299107	150.185391325014	-31.5088215959092	43.4408647528929	
481840000	-30.2793364606914	55.373095895918	-0.208744140280228	138.527904439955	-0.201580089990946	138.489180554851	-30.9310141801824	26.2755229667934	
487838000	-30.6978897992187	42.7760172893184	-0.207609503616842	126.816740981054	-0.203034191885733	126.791879475169	-30.8289546679239	6.84045967695869	
493836000	-31.5557612479711	29.8742653048276	-0.20896310980465	115.117690132337	-0.201887241593064	115.092639490631	-30.8617153722984	-12.6622921892566	
499834000	-33.0134917914635	14.4823202734184	-0.207449788011046	103.409770001134	-0.201879817414725	103.385465318006	-30.8931404863948	-32.8255096594169	
505832000	-34.9210686604392	-2.14093662266759	-0.207992072882752	91.7014968095771	-0.201137187508604	91.6870885852028	-31.0317940957923	-51.9295916904775	
511830000	-37.6678840634319	-20.0991343502185	-0.207334076567682	79.9809117321536	-0.201898149685703	79.9730934308767	-31.5907842152823	-70.1603697085371	
517828000	-41.4422453292693	-39.1949857699098	-0.209097945972135	68.263682321156	-0.200416086582108	68.2587182575467	-32.6965192519283	-87.172374500903	
523826000	-47.601530007273	-66.2671230435138	-0.208063223504199	56.5490949117328	-0.203537747859915	56.5337082520349	-34.3888637280408	-103.317953536578	
529824000	-56.6297176368501	-167.312795001794	-0.211258775386977	44.8312782740775	-0.204804032160278	44.82810277008	-37.3910973577917	-120.892707895267	
535822000	-46.0638048089041	124.091272135772	-0.21311096053481	33.1173200619952	-0.207865509268685	33.0919143052216	-42.7931908889398	-141.851125655612	
541820000	-41.2840145971084	100.963688316729	-0.217469376628498	21.3932470397312	-0.209614557569354	21.3916182434146	-52.4952467929032	143.519415967018	
547818000	-38.5367188192559	88.906574190697	-0.219427887287579	9.69173124681954	-0.211453423248043	9.65663318769655	-43.2961136312584	54.7099920071056	
553816000	-36.7696252587258	77.3948048722269	-0.221880482801629	-2.02242436676116	-0.214656152230219	-2.0395442481327	-38.5638437262808	35.0976532024559	
559814000	-35.472521649025	68.4101712162161	-0.224745213880168	-13.7365301515841	-0.215380704483892	-13.7542277479511	-35.7414394044562	21.2447472222614	
565812000	-34.8092966630174	60.0270267150992	-0.223198951865611	-25.4632149214675	-0.217771512020808	-25.466804626398	-34.3211879785208	11.7075710006288	
571810000	-34.4799714829891	53.2296751551587	-0.22563352919446	-37.1717049546377	-0.220125392745143	-37.1750902228869	-33.4250619512405	1.37648556209251	
577808000	-34.4577739399544	46.6228112340917	-0.227240954119459	-48.881478261449	-0.2188795179538	-48.8806172522078	-33.1193662907615	-9.86324157822114	
583806000	-34.8149400700906	39.870229312923	-0.227401725998634	-60.5910980930573	-0.21961153472573	-60.5828120212119	-32.8320752436117	-20.8770858667792	
589804000	-35.6593271963964	31.145850182183	-0.227990703844736	-72.2876485132139	-0.221449744740889	-72.2961085678613	-33.0136607886234	-34.4117176543751	
595802000	-37.0559540747793	21.4380225562823	-0.228465611238067	-84.0026163466186	-0.220944475746508	-83.9892869688238	-33.0104493280128	-48.0046761271855	
601800000	-39.2083706764328	11.4830190386668	-0.227871831108691	-95.7070906857625	-0.223131754037417	-95.6977953697248	-33.1167838407585	-64.820039352356	
607798000	-42.9530946663552	-6.99737724898561	-0.230008044098326	-107.403526155	-0.223451710249377	-107.413196402139	-32.8919035881149	-84.4322004104175	
613796000	-48.0627044384924	-28.5928665550775	-0.230759950396632	-119.122805858658	-0.225031597885298	-119.101982416472	-32.5659932331546	-102.561116347123	
619794000	-58.124141979324	-105.353332272585	-0.232220221597328	-130.843137959229	-0.223072387618904	-130.820117667544	-32.6241786786355	-120.887782602846	
625792000	-50.2461975431064	158.172383117728	-0.232464038807682	-142.549698753714	-0.228152614399676	-142.541329601405	-32.7760639788288	-139.380355916087	
631790000	-45.5721781123406	121.002649020328	-0.233162918491954	-154.24941667469	-0.228196887004747	-154.248653198042	-33.4083144081796	-157.504015893968	
637788000	-41.8892138872026	94.2572297668174	-0.237211444406801	-165.9627039419	-0.226895609693753	-165.946633655884	-34.4396225193411	-177.485431382294	
643786000	-39.1687832832115	71.1087083700702	-0.237519756698457	-177.663430367915	-0.228903851886564	-177.663084567372	-36.5726948735973	158.662611631476	
649784000	-36.7189422166469	50.2583673551168	-0.237113425565048	170.615220889708	-0.23059549713394	170.634260270444	-38.9632806274696	123.30918972453	
655782000	-34.9431451977639	31.1983029693029	-0.234397101818326	158.942799939179	-0.230887529173125	158.909888035632	-39.9971601397944	74.5003004448071	
661780000	-33.9087036078809	17.7186699798686	-0.237863981193915	147.235065387579	-0.230123293329931	147.237237701202	-37.9453323326729	28.4008157263258	
667778000	-33.5092646954031	4.12853833361684	-0.238509817617137	135.537586916835	-0.231028639095702	135.530653827294	-35.7543039131375	-1.01726008738895	
673776000	-33.7969131171915	-4.4469183729699	-0.23863297098671	123.818947180482	-0.229350176166352	123.817803461561	-34.0232941819732	-24.9347193262974	
679774000	-35.3189759140135	-12.483063449159	-0.237440752547187	112.131060571086	-0.233091612060528	112.104577117407	-33.0947089290051	-43.549187433556	
685772000	-38.2857611886576	-15.4786644213161	-0.239537266409922	100.405668628657	-0.232202957609332	100.389276392761	-32.9413194779146	-63.0553715609432	
691770000	-43.8889465842352	2.51986271257031	-0.239273803489556	88.6852718529546	-0.235972260532523	88.6593710480644	-33.1775002834859	-84.9103314915367	
697768000	-43.9182064711798	74.2930678136486	-0.241708638525946	76.966981435337	-0.233224404219824	76.9543490759932	-33.8033438218151	-109.60082278836	
703766000	-37.4646875556417	93.2927807539454	-0.243257445469877	65.2275712862645	-0.236487454295299	65.2279149438448	-34.1118997335097	-135.491187876362	
709764000	-33.761020046281	93.1268495244696	-0.244106273767201	53.5351807891964	-0.238330976904655	53.511466659946	-33.7559584452447	-162.616088047647	
715762000	-31.5641821790769	89.4990234334734	-0.245844623051606	41.8238841999817	-0.238464277121249	41.7908989918585	-33.1819732244612	175.554072208444	
721760000	-30.2231266999292	84.9205796705448	-0.246284834786492	30.0858909540644	-0.241866767498949	30.0833863457368	-32.1821348689341	155.547923729619	
727758000	-29.4519079213123	79.0812434782472	-0.24970929122675	18.3943881651664	-0.242537521886053	18.3788228524504	-31.629589013287	140.495742046858	
733756000	-29.3396633769955	73.7256982746238	-0.250271822282415	6.70130899426145	-0.243528114808909	6.67128658593081	-31.5870413640065	126.762533206998	
739754000	-29.6746753143406	67.0559464698439	-0.252876093421439	-5.0180318798666	-0.248639794019462	-5.02079216745217	-31.8928189641894	115.616748215157	
745752000	-30.4880778699838	59.9540043670581	-0.253969378889864	-16.7358067374332	-0.248886522425703	-16.7312606335779	-32.8564844424912	104.751830247949	
751750000	-31.7365939636438	49.9723424814375	-0.257052264793051	-28.4320629897604	-0.248554816496586	-28.428679984762	-34.6600289985452	94.3976677319175	
757748000	-33.9271440930313	36.5325500203895	-0.260011347403301	-40.1349732590114	-0.251834250951013	-40.1105531241311	-37.4954425569361	81.0652034255457	
