!Agilent N9923A: A.05.17
!Date: Sunday, 01 January 2006 12:52:13
!Model: N9923A
!Serial: MY50371189
!CHECKSUM:0191809894
!Correction: S11(OFF)S21(ON U)S12(OFF)S22(OFF)
!S2P File: Measurements:S11,S21,S12,S22:
# Hz S DB R 50
2000000	-37.2603242084991	47.3877168178787	-0.067018877822833	-4.454475850549	-0.0577412570888053	-4.51193918913091	-38.1085159427394	45.6813096321608	
7998000	-27.6346705230652	58.3745076143634	-0.0992481993496307	-17.0816855020598	-0.0928715635519355	-17.1179581189707	-27.8060936738081	57.6568104834621	
13996000	-23.4190919172941	50.7540834234608	-0.129995356886711	-29.5544013091282	-0.124441632628391	-29.6098944193767	-23.5873662433475	50.677743991813	
19994000	-20.9399920050854	41.2005840935201	-0.158615777100889	-41.9570715868871	-0.152005079571933	-42.0366128542206	-21.1109454233897	40.9928800839844	
25992000	-19.3534348552963	31.0655474631505	-0.187881811633109	-54.3423762034868	-0.181021926307041	-54.3991698494094	-19.4704538991911	30.7972326291858	
31990000	-18.3204225653069	19.9389083668727	-0.214739673226722	-66.6562491146523	-0.210772636685075	-66.7142013362993	-18.4171446552348	19.5344432493544	
37988000	-17.7385991659757	8.51285158291973	-0.238031882210372	-78.9078861376108	-0.232708707224868	-78.968881834319	-17.8126888832871	7.92866829637213	
43986000	-17.502068732688	-3.41638265433613	-0.258618188843071	-91.1709989728231	-0.252330816812348	-91.2177690338851	-17.5740114019459	-4.20474817859211	
49984000	-17.5851593455465	-15.5343557966704	-0.268976310961801	-103.387189555211	-0.265537676640894	-103.46085033213	-17.6589162443346	-16.4216208547002	
55982000	-18.0179432298995	-27.7872840122834	-0.275131815807324	-115.650101143713	-0.26981846300451	-115.699184016578	-18.0584845334689	-29.0609426685984	
61980000	-18.7919822034693	-40.1878006343566	-0.27679625547424	-127.9132696399	-0.27148337670712	-127.963080442218	-18.8613562247084	-42.0374774543994	
67978000	-19.9803782932815	-52.4994829548888	-0.274070258947168	-140.207288942735	-0.268061852350733	-140.265864640797	-20.0605064699283	-55.1797391432048	
73976000	-21.7616543706322	-64.3524709681589	-0.271455242839898	-152.53649979021	-0.266359706017932	-152.589128396892	-21.8852887913176	-68.3825090599915	
79974000	-24.4015633275166	-74.8484842367918	-0.268043279044383	-164.90314005735	-0.262014152843703	-164.967573793218	-24.5832348968898	-81.4946574289206	
85972000	-28.8213835806259	-81.8498795239645	-0.26983239103196	-177.288417633706	-0.264022200048493	-177.339429544425	-29.1593581089504	-94.273514623321	
91970000	-37.5686276063252	-63.4601811854089	-0.2777451152383	170.316764904063	-0.27360916085099	170.249808179359	-40.239066708768	-107.697374882504	
97968000	-34.1593265487124	30.2041626956436	-0.291555403861264	157.921012019784	-0.285724074920162	157.855092043502	-35.7605802994424	60.4125509042702	
103966000	-27.0850707134954	34.4312504032339	-0.312240023468255	145.541281873656	-0.305648697075137	145.483051229959	-27.6008945932546	48.4879658712488	
109964000	-23.2731309375889	27.5382812520903	-0.333699761780351	133.18686425171	-0.329555329560374	133.138749061619	-23.6920707735239	36.3909815961003	
115962000	-20.8687389173243	18.0302432586766	-0.357847175440512	120.884983927914	-0.353847186537238	120.824770110025	-21.2602276697325	24.7889529164935	
121960000	-19.2480786684516	8.0090990844375	-0.381690817395216	108.608443652091	-0.377587047515435	108.552311601936	-19.6617433893775	13.5298651995629	
127958000	-18.1781081685884	-2.01461666674024	-0.402245313649686	96.3615001989869	-0.39982553332805	96.3004056634691	-18.5763770695537	2.45428463310707	
133956000	-17.5406044685935	-12.2849858356145	-0.423301610923275	84.1311122154257	-0.41818647170358	84.0765913222013	-17.9529462865662	-8.50418219811331	
139954000	-17.2932036413902	-22.5924287782022	-0.434260522727344	71.9154403359555	-0.431511685580236	71.8498525769586	-17.6879869126606	-19.5715960108241	
145952000	-17.3691010905412	-32.9353270171035	-0.445269837558087	59.714791784261	-0.439573618624516	59.6524601159282	-17.7486427181078	-30.8005944220414	
151950000	-17.8040709464625	-43.0414203329961	-0.451042526025406	47.502506901605	-0.445405405211573	47.445623869727	-18.1453590377878	-42.0033889862065	
157948000	-18.6021152786862	-53.0832920042617	-0.451234537724816	35.2976579102911	-0.446491819383475	35.2195736688998	-18.8883316195095	-53.9203739868956	
163946000	-19.8036243520884	-62.9312084986136	-0.447125593195804	23.0440382154245	-0.443874052847166	22.9917376892398	-20.0915676053606	-66.0139630957609	
169944000	-21.5532259536359	-72.0281418080008	-0.442725722039267	10.7696191008696	-0.437819104001794	10.7370261090776	-21.852712364345	-79.1499644999814	
175942000	-24.0853580665661	-79.5697719242019	-0.437378123087537	-1.52166556182977	-0.436032465374364	-1.58680835438191	-24.4964424054406	-93.3333954942961	
181940000	-27.9815612573013	-80.9668831012959	-0.438108899639027	-13.8662760753629	-0.43441014019891	-13.9298731184713	-28.8306589459049	-110.289407692377	
187938000	-33.4836065870188	-58.2440068741914	-0.445434231530529	-26.23873763641	-0.439422942910633	-26.2856556315577	-38.0445526514542	-142.094909361794	
193936000	-32.0712081046309	-3.36238741760731	-0.455024511935954	-38.5899388627359	-0.451726203016658	-38.6460473994746	-36.4017481093089	74.9822381046401	
199934000	-26.7760367255599	8.85002051093649	-0.473082935940767	-50.9680054657629	-0.467860404457264	-51.0146050804265	-28.1140185866522	47.3875227144735	
205932000	-23.2795838447555	4.74198412658488	-0.49237536950217	-63.2726712569177	-0.490894557102873	-63.3252209694734	-24.1278572392296	30.8140976606812	
211930000	-20.9326881877389	-3.30950876887612	-0.516199362634257	-75.5884701693395	-0.512588756904558	-75.6186717072161	-21.6013308479944	15.7601944186811	
217928000	-19.3197581555982	-12.737213112886	-0.538420116094669	-87.7907625834705	-0.533397001031596	-87.876678167107	-19.9010778714519	2.07025717856796	
223926000	-18.2190210561446	-22.6430261696052	-0.55984548124113	-99.969383192797	-0.554531751664514	-100.069565487967	-18.7595202602505	-11.2756895755002	
229924000	-17.5209052760073	-32.7224131049756	-0.57399935849875	-112.196246830869	-0.568775674040689	-112.247186092985	-18.0185562958352	-24.3258676010078	
235922000	-17.1531457458817	-42.2868782724456	-0.585583953899679	-124.361828755044	-0.579370397100944	-124.428755939035	-17.6073123016192	-36.773974696464	
241920000	-17.1213781132839	-51.6145223682088	-0.589136147975131	-136.529387292224	-0.58594823237123	-136.595260050446	-17.564334674931	-49.1664764294497	
247918000	-17.4301804472341	-60.3422124125358	-0.591221050614143	-148.735081130295	-0.587455530358216	-148.789510521069	-17.8485919956192	-61.0802372381107	
253916000	-18.0930768341599	-68.5080848705777	-0.588968403743384	-160.946238002081	-0.584846168441652	-160.997234095704	-18.4986546763719	-73.1427091340214	
259914000	-19.1401834127884	-75.6221249967932	-0.583356885122118	-173.188848033078	-0.579299710599479	-173.248196391907	-19.6006893803346	-85.2462752434152	
265912000	-20.6484743983125	-81.1447116239239	-0.580183107292271	174.533567279128	-0.57525658418011	174.477201665744	-21.2861698578522	-97.6053253871869	
271910000	-22.7029749020234	-83.4297114446246	-0.575479644866638	162.239481924828	-0.569808970679648	162.174226092266	-23.7407126353198	-110.795998680958	
277908000	-25.3260914416996	-79.1741086860799	-0.573481052992431	149.899676099292	-0.571331894544131	149.840522797445	-27.6544532186284	-127.066034024786	
283906000	-27.7640685003899	-62.2467590065014	-0.576693194732094	137.550834924945	-0.572496860513207	137.505730681354	-35.0376654792273	-155.806657316765	
289904000	-27.593087826083	-36.757986031713	-0.58521329202542	125.209753345171	-0.579069023637928	125.152886549793	-37.7051274016592	81.9035074219175	
295902000	-25.2205486537949	-22.5053579642743	-0.596325218424422	112.876738191793	-0.592785968721115	112.803255239418	-29.0793667037418	42.5700531459532	
301900000	-22.8797469644282	-20.4884242386778	-0.613248504223504	100.544743286387	-0.610097354202454	100.494974804487	-24.8957375970814	24.8740304535634	
307898000	-21.0481461573656	-24.3045485684825	-0.633692225877369	88.2546639028008	-0.628697680044072	88.2085468986155	-22.3847348521407	9.82885413352738	
313896000	-19.7610977198265	-31.1442572063076	-0.65661180086424	75.9943139517257	-0.651917785609572	75.940513896637	-20.7609491776435	-4.62544483650727	
319894000	-18.8598727874104	-39.3269929031367	-0.677888931696619	63.7666632250509	-0.673859027247401	63.7167088594296	-19.6758258303909	-18.6346462399922	
325892000	-18.30945672099	-48.3497914095684	-0.69738072431042	51.5743849415554	-0.692215248418	51.5246399700907	-19.0203188579772	-32.7811861115503	
331890000	-18.0487216756172	-57.5735954478821	-0.713081334440716	39.4006805682854	-0.707840910760342	39.3421036593445	-18.6712832703891	-47.2214176658337	
337888000	-18.0780481346604	-66.6549561014879	-0.721053822644526	27.2271808922035	-0.717279686011745	27.1762422548996	-18.6360229119535	-61.6767654941094	
343886000	-18.3690112245576	-75.036880548884	-0.726516096134733	15.0444825543886	-0.721587576654385	14.9914390942439	-18.8612943481269	-76.2490068826546	
349884000	-18.953616968751	-82.5223820255231	-0.725672859542837	2.86539368935959	-0.722607426554392	2.80771192827691	-19.4406699976225	-91.3270070360099	
355882000	-19.8418565087163	-88.3539394426998	-0.720265607855254	-9.35907974423461	-0.716055936376781	-9.41096803646121	-20.4412462928965	-107.016756742736	
361880000	-21.0927106577155	-91.3510141572214	-0.714341101782603	-21.6023807605094	-0.711910561439294	-21.6615688064098	-21.9771961055904	-123.985731290557	
367878000	-22.5285692251009	-90.0650409045156	-0.709566239801722	-33.9072082800898	-0.705560983502013	-33.9467308586503	-24.2844395395073	-143.52687927074	
373876000	-23.893320117857	-82.1401328707268	-0.710669204996115	-46.2239350116626	-0.704363670264007	-46.2506243600853	-27.7739252485231	-170.911034539326	
379874000	-24.2997483922651	-68.6155355890935	-0.714699078621884	-58.5567095429217	-0.708711688426512	-58.5999260383274	-31.6115507423953	138.637136958542	
385872000	-23.3968677378676	-55.8029120179315	-0.72484383308775	-70.8922251130107	-0.720038899491242	-70.9244395417777	-29.7237816011973	73.0631093562072	
391870000	-21.6817200482143	-49.0388702464183	-0.740851194210471	-83.213790472833	-0.73607235576904	-83.2405424228601	-25.474644026917	37.6470489898904	
397868000	-20.0992825275938	-47.813654015796	-0.759325264852841	-95.4997891904828	-0.756413742367125	-95.544674336322	-22.3858720838174	16.5815065690036	
403866000	-18.7505806687935	-50.3285819644755	-0.779370798430852	-107.774448692001	-0.774913728958613	-107.815663590747	-20.278107007023	-0.261965198839824	
409864000	-17.7702859994057	-55.003320747461	-0.799076449812858	-120.002806793544	-0.794284694478203	-120.039784733278	-18.8450009840722	-15.1428865061767	
415862000	-17.1290883429752	-60.9620440002428	-0.814264062912244	-132.184291419141	-0.81307386824911	-132.241116094003	-17.9315711250094	-29.0988970121868	
421860000	-16.7801488331757	-67.7528725851941	-0.829016356511888	-144.36292700797	-0.826018637088189	-144.404420768639	-17.4305384247448	-42.8714976724715	
427858000	-16.7381075624229	-75.1250798935659	-0.83754592982908	-156.52016274315	-0.834005831590983	-156.546477234189	-17.3249997084134	-56.4651302650568	
433856000	-17.0130939951323	-82.6529750493972	-0.840477780409118	-168.668427905388	-0.835964343924057	-168.702931452038	-17.5440959115737	-70.2612793046773	
439854000	-17.6084214882835	-90.3956660608895	-0.837841727266291	179.166846499802	-0.832902021858596	179.136975261668	-18.1377047140823	-84.3811636968055	
445852000	-18.5377758993517	-97.4263902015829	-0.830748127691947	166.970641748692	-0.827305738317478	166.943648802147	-19.1112111750636	-99.251761463492	
451850000	-19.9058580529135	-103.424085417274	-0.823343497555022	154.741871836252	-0.817230793257248	154.719215828153	-20.5653845225093	-114.630871047455	
457848000	-21.6959191889794	-107.180513111626	-0.814371075565732	142.457825471712	-0.810318986460849	142.439692702945	-22.673134186006	-131.300046463742	
463846000	-23.9779125093993	-105.387820041013	-0.811803797743529	130.137883466544	-0.806406420870087	130.128812674085	-25.7496080283427	-151.062465426998	
469844000	-26.1611427979415	-93.3508983739408	-0.809251231535581	117.823773790375	-0.807733418979223	117.803865869338	-30.6649983333817	178.983172766443	
475842000	-26.7171211796656	-71.7490883461577	-0.818678359435415	105.460147704466	-0.814684678059044	105.44420321648	-35.6543161988817	105.789092787467	
481840000	-24.8271710803218	-55.4057866614863	-0.833064514006471	93.1332293571331	-0.826329663640343	93.0962662825425	-29.9435380190986	36.7372110710954	
487838000	-22.452382595108	-50.5547720899006	-0.846967831129296	80.7768533428896	-0.844218872141402	80.7611946073976	-25.1780034726164	9.41154115204315	
493836000	-20.4109479910238	-51.8977235939182	-0.869661903180719	68.4871683771085	-0.86576532649705	68.4640724876445	-22.1013000026667	-9.05227959498458	
499834000	-18.8352453535412	-56.776480063151	-0.891511918461058	56.2170795414728	-0.889342279442387	56.1846656756951	-19.9909935204805	-25.3675939289351	
505832000	-17.6584898179521	-62.9595431700362	-0.915028366196279	43.9984898635877	-0.911260529613729	43.9859791375958	-18.4532816698124	-40.1185284805647	
511830000	-16.8329554654393	-69.8975044579211	-0.937304611348775	31.7927976597186	-0.936052100006476	31.7858380000561	-17.3866072194735	-54.0417049024321	
517828000	-16.3011580417743	-77.2698098649931	-0.957266343559641	19.6400910172781	-0.952156023204212	19.6203360212324	-16.7025453763177	-67.4436008699582	
523826000	-16.0446989480369	-84.6511270692676	-0.970272030788742	7.49649398029373	-0.966246154401596	7.49185725353479	-16.3555656892722	-80.9034708118645	
529824000	-16.0531433481713	-92.0327894223061	-0.979456042750308	-4.6367627983898	-0.975867496474073	-4.66272538724717	-16.3226507787123	-94.1812940575163	
535822000	-16.3356511091055	-99.2006837039518	-0.982507078704566	-16.774107678713	-0.979906522031609	-16.7932488166758	-16.6120197708005	-107.876336790861	
541820000	-16.8920754722067	-105.919515469743	-0.980391622326238	-28.9203783996411	-0.976787772492896	-28.9294634342353	-17.2633635120628	-121.849377045966	
547818000	-17.7963306591465	-112.154178294461	-0.970917503598344	-41.1112508505173	-0.967266279216646	-41.1338202180713	-18.3640260049813	-136.412387201055	
553816000	-19.0802546307312	-116.862473321016	-0.962005079296194	-53.3229798232302	-0.957848292719204	-53.3407894382393	-19.9586979814684	-152.115825885944	
559814000	-20.7943090380619	-118.983141907354	-0.951017374916639	-65.599718321776	-0.946158979633043	-65.6099764030487	-22.301624078734	-169.762662136889	
565812000	-22.8295645642537	-115.969920106555	-0.943332336155854	-77.9085103476317	-0.937672182771136	-77.9203438743579	-25.7434692623828	168.062269043674	
571810000	-24.7670383987366	-104.219252661626	-0.939802805379992	-90.2417500806783	-0.935613918958448	-90.2581269983265	-31.10108840882	129.659070196136	
577808000	-25.1928265847603	-84.5142677192338	-0.943405081044015	-102.604658435534	-0.936129602683074	-102.607357049348	-32.8176734341927	49.1179730420341	
583806000	-23.6411929508112	-69.4105090354453	-0.950993834243455	-114.944275093992	-0.946883602996583	-114.942835921448	-27.4624343393898	-1.76939344154144	
589804000	-21.6290387036525	-64.1776865080545	-0.96900394507377	-127.251332129144	-0.964647259363345	-127.267993124799	-23.7312231033863	-27.6597634724822	
595802000	-19.8409812071525	-64.8651373176633	-0.988916252554789	-139.549954394977	-0.980717573817752	-139.526545203251	-21.217282368875	-47.2098388902753	
601800000	-18.4761489006196	-68.965795453196	-1.01014825027501	-151.778950369046	-1.00614778398682	-151.773400014112	-19.5520546993342	-64.5138589228735	
607798000	-17.5546555799448	-74.5184174536985	-1.0305069458081	-163.9621325344	-1.02352514731192	-163.966792980396	-18.4062219462406	-80.9206191609108	
613796000	-16.9268277464707	-80.6848909992644	-1.04514281222874	-176.148855459105	-1.04424646013574	-176.126464283477	-17.7007168736813	-96.6001038147251	
619794000	-16.6037947486689	-86.9615168949169	-1.05820974179634	171.695282990495	-1.05288610872215	171.709962803791	-17.3543223117619	-111.846118592095	
625792000	-16.5557082151091	-92.8913071083861	-1.06251932151288	159.568645648675	-1.06152967226864	159.553006336056	-17.352611470582	-126.987419822473	
631790000	-16.7256003424759	-98.356719935403	-1.06409936494879	147.398594298239	-1.06208660629332	147.410208565525	-17.7035286236601	-142.459690843126	
637788000	-17.1520998606172	-102.826080176035	-1.05996813306808	135.213612323352	-1.05509665919016	135.207319578149	-18.4099701654616	-158.382915075536	
643786000	-17.7960706523637	-106.035983012859	-1.05336888811155	122.983640265679	-1.05072044970003	122.998527231943	-19.5766283637006	-175.242978055623	
649784000	-18.6164842700734	-107.261869294729	-1.04583131997397	110.731985837758	-1.04294181329149	110.748960706116	-21.258959592904	165.274188758443	
655782000	-19.549426884961	-105.822466907808	-1.04198978650833	98.475934545255	-1.03948160395085	98.4590622178589	-23.4545058922655	141.040584073858	
661780000	-20.3619288367319	-101.072203106662	-1.04142268444887	86.141473870907	-1.03383473431245	86.1566369325361	-25.9674748525272	106.973787993136	
667778000	-20.7581094440567	-93.3298091682897	-1.03953070516682	73.8189287827938	-1.03971411865122	73.8230780040621	-26.8955078474014	59.7319105604842	
673776000	-20.4433518036766	-85.2202245741248	-1.05376878284083	61.4612928517793	-1.0485085989955	61.4717242668385	-25.1252055857189	16.0494992495326	
679774000	-19.5829544015037	-79.2565380994537	-1.06900328763371	49.1366814985633	-1.06454027421208	49.1237647805542	-22.4754654482916	-14.7352931009482	
685772000	-18.4459669868744	-76.8744033289516	-1.09010045939141	36.8102660342848	-1.0833251361405	36.8059392336704	-20.3094296050854	-37.9316866014061	
691770000	-17.3533054465655	-77.8725693232912	-1.11422086502495	24.5094222681165	-1.10999116258956	24.5018715443051	-18.6836034269151	-57.5315691737671	
697768000	-16.4038476316138	-81.1745819615452	-1.14392040471154	12.2734627191094	-1.136516974013	12.2679600581181	-17.4983814797781	-75.5252240910115	
703766000	-15.6886232686021	-86.126928810776	-1.17153104884462	0.0544070625025327	-1.16622240746599	0.0498937503365214	-16.640003674411	-92.8746951685305	
709764000	-15.1530778762878	-92.1654252270038	-1.19425193005651	-12.0827559845256	-1.19075729799482	-12.0855906206096	-16.0728704814249	-109.812057274037	
715762000	-14.864334805291	-98.6356265803705	-1.21090395815727	-24.1900724320625	-1.20875083755259	-24.2065451313361	-15.7248472889655	-126.677340841401	
721760000	-14.7618985125644	-105.355287532529	-1.22434158057367	-36.282984390552	-1.22001770076227	-36.2933246997196	-15.6275908058387	-143.339027675004	
727758000	-14.8630142073428	-112.021701590324	-1.2266434773196	-48.340458745836	-1.22506650711562	-48.3448433194266	-15.7731648133967	-160.231610284388	
733756000	-15.1843686887797	-118.295469551711	-1.22450981002917	-60.4245294301766	-1.21889587453954	-60.442846275412	-16.1503517751438	-177.148937858793	
739754000	-15.6788925595561	-123.662933348203	-1.21397635393066	-72.5667481496146	-1.21067796584257	-72.5485672129851	-16.8027307456848	165.383316169321	
745752000	-16.3510690408245	-127.694130861566	-1.20086016431737	-84.7277877326048	-1.19795943382941	-84.7172010485809	-17.7892651823922	147.156685747685	
751750000	-17.2136509575969	-130.072004408811	-1.18751618728167	-96.9466675833817	-1.18192913384939	-96.9335087486542	-19.1731073968107	127.510420762216	
757748000	-18.1252293116661	-130.069651419774	-1.17630706471186	-109.217834523795	-1.16752018044436	-109.198289710727	-20.9977792889146	104.616927717408	
