!Agilent N9923A: A.05.17
!Date: Sunday, 01 January 2006 13:13:22
!Model: N9923A
!Serial: MY50371189
!CHECKSUM:0452853959
!Correction: S11(OFF)S21(OFF)S12(OFF)S22(ON U)
!S2P File: Measurements:S11,S21,S12,S22:
# Hz S RI R 50
2000000	1.0026224797429	-0.0115721107539626	-4.16236803362246E-05	1.88440210261116E-05	1.8981325991261E-05	3.28315828404035E-05	0.10249379674775	-0.0093703934474667	
7998000	1.00155140610347	-0.0256432166470427	-4.82550428986424E-05	-3.20320304911857E-05	-2.28458027825487E-05	-5.67895124155385E-05	0.103279865035655	-0.00441012926098969	
13996000	1.00067203915298	-0.0400269187212326	4.99815974315444E-05	7.01675628028157E-06	3.2813604164048E-05	1.41530850296122E-05	0.104327440398266	-0.00531561992353805	
19994000	0.998725259470934	-0.0545485399113419	4.41326665442485E-05	8.44741890846099E-06	5.48191012686639E-05	4.23296946773089E-05	0.10342577456715	-0.00697836024724508	
25992000	0.99572254066522	-0.0692267703800785	9.81762543972691E-05	-0.000102381316469346	-7.16017194318785E-05	0.000108316197264998	0.101926752932507	-0.00814879446701309	
31990000	0.992503694233414	-0.0840473987864187	9.01626208358947E-05	7.7196525491262E-05	-1.2637920664106E-05	9.12040550373498E-06	0.10075852416278	-0.014222188045848	
37988000	0.989015819591792	-0.098875952881427	1.67304014839498E-06	0.000143288739965158	-0.000110205315167291	0.000125903656273238	0.0976124428145581	-0.0163824805944991	
43986000	0.984819282603487	-0.114516171384828	8.08676054396718E-05	-1.98807693141813E-05	3.09128478914929E-05	7.32183042278536E-05	0.0946747131896588	-0.0184337494618825	
49984000	0.980957250685801	-0.130015312391747	8.18853710809691E-05	-2.54247650974767E-05	8.57547322287906E-05	-3.11845970044041E-05	0.0946894439864525	-0.0193403137679927	
55982000	0.977293268896057	-0.145940656766567	1.44906156859068E-05	-1.82484586151257E-05	1.72607267023307E-05	8.81635769604335E-05	0.0943788466368276	-0.0208809572105365	
61980000	0.973772897876448	-0.161815666170656	3.39916055243108E-05	7.94345776766471E-05	2.5899959106998E-05	5.27190209290952E-05	0.0931243722456838	-0.0248733313787534	
67978000	0.97023284241096	-0.17815266573597	-5.77190397060618E-05	7.7683506762353E-05	-2.19410282452002E-06	1.43538946211725E-05	0.0919630635318958	-0.029108826868426	
73976000	0.967332199057539	-0.19429890076926	4.3137185484815E-05	-5.53832551580486E-05	-1.86157470250507E-05	7.03038539062611E-06	0.0911193079291352	-0.0330086341755719	
79974000	0.965099916287542	-0.210534819395098	7.80910506201487E-05	7.77281074145523E-06	-5.79830433547374E-06	7.91194501049455E-05	0.0906120297526834	-0.0371593885051564	
85972000	0.962926443688519	-0.226796604917667	-2.24867447324008E-05	-0.0001338865166328	0.00012572907582241	5.43689587535465E-05	0.0907923530623601	-0.0412420303538401	
91970000	0.960976278172152	-0.242907160275872	2.26025171324611E-05	-7.10816816960126E-05	-7.59537324508212E-05	4.83663316947748E-06	0.091425831916886	-0.0457359311822647	
97968000	0.959335670396094	-0.258507706383566	1.57462388464529E-05	-1.67833091434344E-05	7.85736024388163E-05	1.13360724639469E-05	0.0918658987838125	-0.0507775973049646	
103966000	0.957656765786628	-0.273864043526398	5.95784965702824E-06	-2.79247659507803E-05	4.29685451575874E-05	7.13800848540519E-06	0.092170521452975	-0.0550435608440933	
109964000	0.95577503482803	-0.289183527027136	8.83738386605804E-05	-4.15967420796444E-05	1.4232051496812E-05	3.14880876048807E-05	0.0899615328115257	-0.061038357485089	
115962000	0.953538518686093	-0.304116921479485	-2.68363013298595E-05	-2.82002200073037E-05	-9.10211376810272E-06	-2.04068894766759E-05	0.0861339291030278	-0.0646816992411154	
121960000	0.950788897238344	-0.318460648278158	-5.47945590224303E-05	-9.7421446537577E-06	-4.01615500906366E-05	-4.12801226164335E-05	0.0826468668059477	-0.0634776921893346	
127958000	0.947137099588098	-0.332281852634907	-2.65430925497265E-05	-1.0524537438918E-05	-5.90512037140835E-06	-5.36472077282488E-05	0.0788525094732125	-0.0636406016796048	
133956000	0.942875473612725	-0.345696031011689	5.65076829764535E-05	5.55752533718802E-05	-5.07078569435628E-05	1.00960631451353E-05	0.0750389988133244	-0.0639156464968414	
139954000	0.937745038006399	-0.359298105444255	5.21187183324011E-05	-8.43416323260732E-06	-2.63942889453241E-05	4.77795826943292E-05	0.0710826799057562	-0.063929044132412	
145952000	0.931828990132454	-0.372688849535847	-1.06400286517265E-05	-2.58096739832733E-05	-3.6057524195022E-05	0.000123880907566369	0.067688051318669	-0.0635736470419459	
151950000	0.925254017392578	-0.3856414590582	-2.94345554542867E-05	1.62218810646923E-05	-3.82100433915935E-05	-1.16917093777212E-06	0.0646002606979407	-0.0623639662165834	
157948000	0.917587386177169	-0.39869498779824	0.000100074713791171	-2.47310322613554E-05	3.97055974202312E-05	4.71567232614177E-05	0.060344081386172	-0.0616285902855598	
163946000	0.909556965989268	-0.411881139233125	6.32193647498414E-05	3.42091971983892E-06	-3.63590910062461E-05	-2.13496773779373E-05	0.0560949633612739	-0.0610817057075224	
169944000	0.901551879463933	-0.42447308587881	-5.61630037245681E-05	6.34573624417555E-07	-8.75977512024072E-05	-1.39432172192365E-05	0.0518163330876093	-0.061036564652522	
175942000	0.89294541594717	-0.43787944617171	7.62442498319159E-05	0.000108936008728764	-4.42263150261566E-05	-9.7081178660395E-05	0.048114513501707	-0.0609573520212903	
181940000	0.884087717858952	-0.45101277649915	-3.13698148991163E-05	-3.48572625833923E-05	7.05419904113675E-05	5.80334545111707E-05	0.043969056449011	-0.0612000000155314	
187938000	0.875388381739725	-0.464577514829449	0.00017437190330818	2.14567617153062E-05	-1.00377901057321E-05	1.80092453229018E-05	0.040262446371126	-0.0621050284101594	
193936000	0.866555041866657	-0.478246687781688	0.000101445895943166	2.49179339873841E-05	1.41445721136404E-05	-0.000121885542105265	0.0367259594453359	-0.063188396651067	
199934000	0.857987602363315	-0.492751837352293	-5.87369185566488E-05	7.3384335886276E-05	7.13366405932637E-05	-3.8689769688816E-06	0.0322549746600997	-0.0651673798695366	
205932000	0.850017435791031	-0.506170072966966	-5.95762383805488E-05	4.50339921225349E-05	5.90463895460196E-05	1.60077025221081E-05	0.0294221844619972	-0.0663696730914037	
211930000	0.842329838104885	-0.521211985130768	-8.83922390992326E-05	-1.11208677347443E-05	7.6829286862174E-05	-0.000146487064041136	0.026980474718105	-0.0677562885472365	
217928000	0.835444171178738	-0.534455144221616	3.29189718115244E-05	4.34091740992698E-05	0.000114455353650886	-0.000125664692226634	0.0247912193682745	-0.0690095780831647	
223926000	0.828556389724191	-0.548500963014626	-2.4016443339276E-05	4.0156613158562E-05	-2.24244616494828E-05	-7.37822129634605E-05	0.0229730715892267	-0.0702444846693945	
229924000	0.820794147441403	-0.56417154039887	6.22829905454831E-05	-3.13563681053237E-05	8.11529612957581E-07	-3.22143856862934E-05	0.0213482608981241	-0.0714419824957585	
235922000	0.813768873777946	-0.578418611320893	-7.96266756632121E-05	1.64299648244674E-05	-3.8119935516549E-05	-2.16216207990663E-05	0.0201438735348706	-0.0719862173798203	
241920000	0.806861621231097	-0.592182752690006	-2.00751190323199E-05	-5.45058923904112E-05	1.1103817621644E-05	-5.17023032461534E-05	0.0186314254263452	-0.0707372010783776	
247918000	0.799366156851013	-0.605611502032451	1.69395453380985E-07	1.25434065467795E-05	-2.64052741232569E-05	1.21595550116067E-05	0.0178138527564138	-0.0702677825742164	
253916000	0.791588062925746	-0.618505548528156	7.05045304011536E-05	4.42567564987032E-05	-7.39189898528561E-06	-3.34029982657E-05	0.0171520617533916	-0.0690998666094808	
259914000	0.783124005517616	-0.630818616403697	-1.2152852739931E-05	8.88809483848496E-05	0.000140900714300935	-3.33110872151304E-05	0.0160776743580465	-0.0677843560905103	
265912000	0.774230279473517	-0.642534877409447	-6.73815516950007E-05	-1.26163427311228E-05	-3.92209941280491E-05	-1.47466277264549E-05	0.0144547391612857	-0.0657970529714922	
271910000	0.764506371183536	-0.653853988913804	-8.96694528652768E-05	-7.7643836511927E-05	-7.199638373665E-05	6.1925847708325E-05	0.0120822254963351	-0.0632735334961431	
277908000	0.754051905904461	-0.664585752081938	0.00010679131921255	-9.83936220015512E-05	5.50807012401134E-05	-2.39053828645121E-05	0.00952196633856281	-0.0602015682695769	
283906000	0.742954860116885	-0.675033332509669	0.000126027122820578	-8.33818054501608E-05	-7.90794549009796E-05	-4.32647296912801E-05	0.00647111553998662	-0.0566479800481201	
289904000	0.731401801584666	-0.684992953532902	1.13887904731157E-05	-7.30983927542273E-05	-7.59136281559405E-05	-4.38669492142002E-05	0.0034572280400441	-0.0529277697007025	
295902000	0.719391527783717	-0.695051257172607	-0.000156961712993252	1.10990968290954E-06	-5.33979311540905E-05	3.38777937897829E-05	5.12045331102227E-05	-0.0490425319094563	
301900000	0.707018440247384	-0.704872539599033	-6.04223036830183E-05	-0.000129264131221123	-5.16900658289499E-05	-5.24260562053393E-06	-0.00375320806645157	-0.0449136241403046	
307898000	0.694190677719455	-0.714671903022825	8.53282320294908E-05	-9.59540395258643E-05	-1.63377069525448E-05	-9.22327392915872E-05	-0.00770325522224446	-0.041397516403557	
313896000	0.681051129388219	-0.724833027286141	6.3871733877072E-05	3.76154511358061E-05	-4.52890884448618E-05	7.50036405457133E-05	-0.0115245484784277	-0.0381976323306314	
319894000	0.667630526140219	-0.734880298238718	4.72889079661339E-05	7.23212989414378E-05	-0.000156439173683987	-9.37974487958245E-05	-0.0150390809929217	-0.0358316636911715	
325892000	0.654549696409966	-0.745219293223399	8.40916468168161E-05	-6.15533618315777E-05	-7.65412277816474E-05	-0.000109638153341488	-0.0188620385235668	-0.0344545496960049	
331890000	0.641367773645315	-0.755746754241806	-8.51607023660564E-05	0.0001030400724083	-2.09511053824433E-05	4.78561934044663E-05	-0.0217901783281536	-0.0330062396759954	
337888000	0.628516837497118	-0.766244663264072	6.70387019754152E-05	-6.55275122642325E-05	4.86385401865296E-06	6.82606426530493E-05	-0.0245252306327336	-0.0311333374894071	
343886000	0.615792707225314	-0.77664332561881	9.12213745779659E-05	5.53331381525104E-05	-2.75140755840267E-05	4.34655191354241E-05	-0.0263796909870064	-0.0297731402882327	
349884000	0.603767862459945	-0.787406823094328	2.05936036403977E-05	0.000104598300236488	-7.02942202479062E-05	1.86490480398836E-05	-0.0278682404028552	-0.0285093026056641	
355882000	0.592152556257965	-0.798568543742449	2.04858147006125E-05	2.94363835305657E-05	2.5653057090434E-05	5.32443673767049E-06	-0.0284498833023507	-0.0281365373261529	
361880000	0.581060690616484	-0.808959870661418	5.93747052962045E-05	5.47312419962171E-05	0.00011374804021335	-7.50883127030622E-05	-0.0289826421953848	-0.0268333876817204	
367878000	0.570101619495946	-0.819930934680685	-4.33606117207808E-05	-1.75148643721294E-05	-4.44962993585079E-05	-2.81991505032599E-05	-0.0284595128441005	-0.0256220066326053	
373876000	0.559544580326294	-0.830325609669113	8.48576607231049E-05	7.26119205579595E-05	-3.28863481547462E-05	7.04561956009544E-05	-0.0274991903116995	-0.0243528339893893	
379874000	0.54860774640799	-0.840277320744694	1.32046086827599E-05	-6.34956091833115E-05	3.79579422440938E-06	8.13641811553269E-05	-0.0263799572317923	-0.0230007688168273	
385872000	0.537692281208745	-0.849801920717176	-3.46513477899984E-05	4.73472195089017E-09	-4.5949118613766E-05	7.52679604881051E-05	-0.0243116661054888	-0.020194480485012	
391870000	0.526749976303639	-0.858491584508632	-1.00325985802513E-05	0.000139224648406927	6.98544939959552E-05	5.99156870044554E-05	-0.0224913934358075	-0.0182700404394359	
397868000	0.514972840697131	-0.866486806468002	-5.59167617110478E-05	2.66207191863184E-05	-1.09351702931584E-05	2.17834735727068E-05	-0.021103867870386	-0.0153432930548217	
403866000	0.502709824412355	-0.873931260826041	2.97972152405053E-05	4.83656225818103E-05	-1.80724788562947E-05	4.54791013312907E-05	-0.0196925134074116	-0.0121998528353974	
409864000	0.489688027694681	-0.880151095426177	5.37957037974013E-05	-0.000108766467553052	5.4971008060134E-05	8.23377363991427E-05	-0.0189680281777795	-0.00852058280037043	
415862000	0.476305189616923	-0.88654923163839	-8.32007246179436E-05	-1.39836583318908E-05	-7.35730787110196E-06	3.85277655821429E-05	-0.0182300899394567	-0.00385117580360342	
421860000	0.462888990510598	-0.892148729169705	-3.96435097095824E-05	-6.18761343271823E-06	-2.09213006813975E-05	-4.81124397278443E-05	-0.0174054854261975	0.00137403756770079	
427858000	0.448319840247365	-0.897540092159999	2.79228848421555E-05	-8.03953598813312E-05	-7.22438069044594E-05	0.000146337762236083	-0.0162613404456237	0.00658037427406353	
433856000	0.4335779521427	-0.902298867257463	0.000130636173350314	-3.8822631111649E-06	1.07428492016776E-05	-6.23312270977844E-06	-0.0154939344859549	0.0110473951863473	
439854000	0.418171673145656	-0.907475257138086	5.87178808467126E-06	-4.91503229683696E-06	9.77541442613364E-06	-5.40823485991977E-05	-0.0156994669799018	0.0152757504614645	
445852000	0.40272803832433	-0.912172028702706	4.79144596379235E-05	7.28384348583051E-06	-2.00019965740239E-05	-0.000163494782065926	-0.0163999531348509	0.0195879383987209	
451850000	0.386993583160477	-0.917042237384605	-4.24474397094787E-05	-5.92578598796761E-05	-3.70625811832629E-05	4.752391792929E-05	-0.0166359811973276	0.0241397647636561	
457848000	0.370893885539533	-0.922498392886929	0.000110139335814092	4.41374298085356E-05	-5.51846367043707E-05	9.42207552858956E-06	-0.0168063218168145	0.028005666833485	
463846000	0.35419331800852	-0.927703953552966	4.06681964082192E-05	4.55032038712665E-05	1.08557165438957E-05	-9.09693857291964E-05	-0.0163588637571274	0.0315769005082479	
469844000	0.33854657739367	-0.933284281854418	1.56015358737478E-05	2.99738566225135E-05	-4.80369356350616E-05	-8.02679193998576E-05	-0.0158738475485505	0.0343182827935413	
475842000	0.321639163092343	-0.939142445390792	0.000147228232889306	6.81116976733791E-06	2.0767736746585E-05	-5.28926216238933E-06	-0.0150344917805535	0.0359825485395824	
481840000	0.306069639450435	-0.94497438667958	2.7807972661091E-05	-8.31892664550951E-05	0.000146518948908957	4.17543544845014E-05	-0.0121168296897643	0.0370445046612925	
487838000	0.289394502345432	-0.951245195974987	-7.96269416954325E-06	4.75341106947077E-05	0.000109077142985706	-0.000154672989979722	-0.0110662015482806	0.0374925872228106	
493836000	0.273941580451386	-0.957015499673896	-9.17755531082808E-06	-2.62213415134533E-05	3.27220927902081E-06	5.63157684435218E-05	-0.00978426438130139	0.0378341978747828	
499834000	0.258510723187423	-0.963211469022421	-2.45864158516145E-05	2.29016127369095E-05	-4.55825067768007E-05	7.78491250328117E-05	-0.00877255649372166	0.0385328564935415	
505832000	0.243417000863751	-0.968889727767258	5.97427215431636E-05	6.65230603899928E-05	0.000121942943509932	-1.11558961433654E-05	-0.0069879871211178	0.0388483414217783	
511830000	0.228226523896771	-0.974016429889578	-6.94473813315882E-06	-3.09637670304313E-05	1.11057564005083E-05	3.66526403109813E-05	-0.00485584135855312	0.0392240803255174	
517828000	0.213145562389045	-0.978514114032569	0.000133198942100078	-1.90958359482857E-05	0.000105820033753737	7.21106523713413E-05	-0.00235814780245927	0.0405237247797416	
523826000	0.198635293321351	-0.982542715695439	2.33337267860893E-05	-4.33827452284796E-05	4.04916868928752E-06	-1.20082416207874E-05	2.78828711260511E-05	0.0416901563438855	
529824000	0.183827875551402	-0.986089092492781	-4.20882094164856E-05	1.97051851087418E-05	4.19303138723761E-05	4.30490230164658E-05	0.00327283349635868	0.0439693288543217	
535822000	0.168769439359716	-0.987945391029791	-4.70810497856869E-06	-4.96922447858165E-06	-1.15391490775415E-05	-4.38011804781295E-05	0.00725722715181519	0.0466845706915286	
541820000	0.154490214799972	-0.989958241234225	-2.00844068332697E-06	7.40283670256513E-05	-9.42831389579275E-05	-0.000148754078570045	0.0125164627882612	0.048617471238409	
547818000	0.139895479157753	-0.991034551549252	-8.34973305791549E-06	-4.27267870738809E-05	6.80114830580735E-05	-6.58491434396523E-05	0.0173880348872773	0.0486492381641557	
553816000	0.125646214830624	-0.991238890579243	-2.5471206895504E-05	8.49611760680481E-05	-6.11483357055021E-05	0.000199769036365913	0.0205737621931687	0.0483226491090123	
559814000	0.110561026505966	-0.991311465704605	-0.000135387611164967	8.77521056481364E-05	-0.000130998885155526	-3.07053984955819E-05	0.0225060704744579	0.0485393381945386	
565812000	0.0955663675095723	-0.991521851069068	-1.60380831847488E-05	-7.03679199279025E-05	-9.61538131343167E-05	4.36765118541075E-05	0.0233031079733306	0.0496084772216241	
571810000	0.0805993170080753	-0.99162627301111	1.09737464900122E-05	6.00796913811617E-05	-0.000163612680585934	-2.26113157640677E-05	0.0238508851599093	0.0511788033593073	
577808000	0.0650710030938966	-0.991276890287711	-6.89523886259045E-05	-3.54893835158532E-05	3.92113075357724E-06	-1.30687322845124E-05	0.0240483199080978	0.053152837593683	
583806000	0.0495979569757424	-0.991533107381721	-0.000102659429246209	-6.49742625786785E-05	-2.12857142901102E-05	-0.000193567508141782	0.0248444327755739	0.0556900302404403	
589804000	0.0336682798446388	-0.991766170467234	0.000245907150741716	-2.29365776483995E-05	-2.02523987586882E-05	7.82370982938503E-05	0.025568297323832	0.0581328086989272	
595802000	0.018359773280343	-0.992320703770602	-5.3845232770849E-06	-7.05948168106074E-05	6.13954096585004E-05	-0.000119154679824096	0.0267631676137175	0.0606601244483187	
601800000	0.00222083285697603	-0.992499477344036	4.59551931559936E-05	5.57651477422561E-05	-0.000214755770714882	5.15486687248832E-05	0.0287101542836358	0.0627205891808611	
607798000	-0.0136633690452942	-0.993711926338593	1.72787901093607E-05	-3.59878273737569E-05	8.53376308906874E-05	-0.000139278781212488	0.0307873752647087	0.0640123339955451	
613796000	-0.0295382175873172	-0.994482191925226	5.11767977296736E-05	4.89906747545792E-05	0.00016844315660922	1.17348924218714E-05	0.033650242024174	0.0651478782946896	
619794000	-0.0458960711406785	-0.995343276959407	6.09061813902562E-05	-3.47633478660457E-06	-0.000101864269123661	6.45069320021075E-05	0.0369544676498277	0.0656317649732349	
625792000	-0.0624017449944593	-0.996206237252658	5.39187842721863E-06	9.94378221408637E-05	5.69060731460319E-05	-0.000142069921614954	0.0410494068714735	0.0659520980113605	
631790000	-0.0778245850710128	-0.996382848912622	-0.000107241037733718	2.01111476570051E-05	0.000108273164569291	0.000136129080234329	0.0451525366538307	0.0658291769338883	
637788000	-0.093814203983326	-0.996841533526794	0.000205421697147318	-2.94871139238032E-05	-1.10135970995457E-05	-3.2052389778227E-05	0.0497452223834485	0.0651781009193952	
643786000	-0.10995326930188	-0.996799644917662	-6.8968891490737E-05	-6.2793891522962E-05	0.000141661572163601	3.19008765073292E-05	0.0548038370231614	0.0641796481265419	
649784000	-0.125850824289497	-0.996047713624015	-3.2387317414195E-05	-3.12867849767611E-06	-6.60651986648015E-05	6.72672278947816E-05	0.0595891207011589	0.0634634978364229	
655782000	-0.140775071502823	-0.993969744122661	1.14263240607509E-05	7.97701997506592E-05	-5.52021586913017E-05	-0.000107797227827627	0.0648619292132634	0.0627136027779387	
661780000	-0.156469901766861	-0.991630996768522	4.5770229355236E-05	0.000210589758619261	-8.8059355255632E-06	0.000198777285908344	0.0702467675200107	0.0617113604233044	
667778000	-0.171247641659382	-0.988217069091512	5.35620344429764E-05	4.67057535204356E-05	-0.000139610335566747	5.47120491921738E-05	0.0753312417347523	0.0609839694602268	
673776000	-0.186907558936094	-0.984039706332548	0.000117524343651181	4.17945325116143E-05	-7.28983825084348E-06	7.09664798059127E-05	0.0799957371400904	0.0598986460725573	
679774000	-0.201582623736139	-0.978668045320671	-3.88448250882241E-05	0.000118511435635662	-0.000106471286241144	-7.37921606570428E-05	0.0846624256407009	0.0594534799805112	
